(1693519318.225579) can0 09F10D03#FF07FF7F94FEFFFF
(1693519318.226730) can0 09F10D00#FF07FF7F0300FFFF
(1693519318.235280) can0 0DF11264#570D8DFF7F4603FD
(1693519318.246023) can0 0DF11905#00FF7FC0FFB101FF
(1693519318.247700) can0 0DF11405#0067A8FFFFFF02FF
(1693519318.248839) can0 08FF4605#BD00B0022C2902FF
(1693519318.249636) can0 0DF11305#0053E4FCFFFF7FFD
(1693519318.250416) can0 09F11205#000B8DFF7FFF7FFD
(1693519318.258568) can0 0DF11964#570000C0FFB101FF
(1693519318.270709) can0 0DF11264#570B8DFF7F4603FD
(1693519318.271485) can0 09FD0206#007C0026BCFAFFFF
(1693519318.276373) can0 09F10D02#FF00A3FEFF7FFFFF
(1693519318.280667) can0 09F8012B#C0B1FF20A08C7707
(1693519318.284938) can0 0DFD0264#FF7C0026BCFAFFFF
(1693519318.295809) can0 0DF11305#0048E8FBFFFF7FFD
(1693519318.296625) can0 09F11205#00088DFF7FFF7FFD
(1693519318.297435) can0 0DF80164#C0B1FF20A08C7707
(1693519318.300257) can0 04FF1902#419F640210000000
(1693519318.327116) can0 09F10D03#FF07FF7F98FEFFFF
(1693519318.328259) can0 09F10D00#FF07FF7F0300FFFF
(1693519318.329072) can0 1DFF0502#A0A01399000D0A33
(1693519318.329879) can0 1DFF0502#A13038352E302C35
(1693519318.330683) can0 1DFF0502#A22C312E352C2D30
(1693519318.331558) can0 1DFF0502#A32E322C302E302C
(1693519318.332396) can0 1DFF0502#A42D312E382C302E
(1693519318.333221) can0 1DFF0502#A530302C3231312E
(1693519318.334024) can0 1DFF0502#A6302C302E30302C
(1693519318.334771) can0 1DFF0502#A73231312E352C2D
(1693519318.335528) can0 1DFF0502#A8302E34382C2D30
(1693519318.336265) can0 1DFF0502#A92E31302C2D322E
(1693519318.337006) can0 1DFF0502#AA312C2D322E302C
(1693519318.337742) can0 1DFF0502#AB302C332E39392C
(1693519318.338484) can0 1DFF0502#AC312E352C302E36
(1693519318.339253) can0 1DFF0502#AD382C312E35302C
(1693519318.340000) can0 1DFF0502#AE33322E38302C31
(1693519318.340752) can0 1DFF0502#AF302E30302C332E
(1693519318.341501) can0 1DFF0502#B033332C342E3632
(1693519318.342233) can0 1DFF0502#B12C3232332E3238
(1693519318.342969) can0 1DFF0502#B22C312E37302C2D
(1693519318.343724) can0 1DFF0502#B3312E382C323034
(1693519318.344472) can0 1DFF0502#B42E31302C302E30
(1693519318.345209) can0 1DFF0502#B52C352E312C3230
(1693519318.346010) can0 1DFF0502#B62E302C302E302C
(1693519318.346778) can0 0DF11305#004582FBFFFF7FFD
(1693519318.347563) can0 09F11205#00058DFF7FFF7FFD
(1693519318.348410) can0 0DF11905#00FF7FDDFFC301FF
(1693519318.349241) can0 0DF11405#00C6A7FFFFFF02FF
(1693519318.350066) can0 08FF4605#68FF9701682902FF
(1693519318.350950) can0 15FD0723#FFC01472FF7FFFFF
(1693519318.351877) can0 09FD0206#007C009EB5FAFFFF
(1693519318.360074) can0 0DF11264#57058DFF7F4603FD
(1693519318.376592) can0 18FF3D02#419FFFFF02FFFFFF
(1693519318.377445) can0 09F10502#4015300C1FA3FEDA
(1693519318.378213) can0 09F10502#418FFFFF1713A30D
(1693519318.378984) can0 09F10502#42FF7F4607FF7FFF
(1693519318.379739) can0 0DF11964#570000DDFFC301FF
(1693519318.380497) can0 0DFD0664#FF147200000000FF
(1693519318.381253) can0 0DFD0264#FF7C009EB5FAFFFF
(1693519318.382020) can0 09F10502#43FFFFFFFFFFFFFF
(1693519318.394962) can0 0DF11305#00D94EFAFF2902FF
(1693519318.396087) can0 09F11205#00028DFF7FFF7FFD
(1693519318.401644) can0 0DF20D02#0001000000000000
(1693519318.423084) can0 09F10D03#FF07FF7FAEFEFFFF
(1693519318.424193) can0 09F10D00#FF07FF7F0300FFFF
(1693519318.437430) can0 0DF11264#57028DFF7F4603FD
(1693519318.445572) can0 0DF11305#00D74FFAFFFF7FFD
(1693519318.446361) can0 09F11205#00FC8CFF7FFF7FFD
(1693519318.447198) can0 0DF11905#00FF7FF9FFDC01FF
(1693519318.448024) can0 09FD0206#007C0065B0FAFFFF
(1693519318.448848) can0 0DF11405#002EA7FFFFFF7FFD
(1693519318.449666) can0 08FF4605#BBFEF9027B2602FF
(1693519318.480197) can0 09F8012B#C0B1FF20A08C7707
(1693519318.488008) can0 0DF90364#FF3000000000FFFF
(1693519318.490148) can0 0DF90464#40228828480D0040
(1693519318.490896) can0 0DF90464#419043C318594C26
(1693519318.491654) can0 0DF90464#428B158BFFFFFFFF
(1693519318.492402) can0 0DF90464#431B00000033C3F4
(1693519318.493145) can0 0DF90464#44207B066F07F200
(1693519318.495573) can0 0DF11305#009D89FAFF2602FF
(1693519318.496348) can0 09F11205#00F78CFF7FFF7FFD
(1693519318.506461) can0 0DF11964#570000F9FFDC01FF
(1693519318.525720) can0 09F10D03#FF07FF7F6DFEFFFF
(1693519318.527841) can0 09F10D00#FF07FF7F0300FFFF
(1693519318.529673) can0 09F10D02#FF01A3FEFF7FFFFF
(1693519318.530509) can0 1DFF2C02#C017419F00000000
(1693519318.531323) can0 0DFD0264#FF7C0065B0FAFFFF
(1693519318.532098) can0 0DF80164#C0B1FF20A08C7707
(1693519318.532848) can0 0DF11264#57F78CFF7F4603FD
(1693519318.533618) can0 1DFF2C02#C100FFFFFF7FFFFF
(1693519318.534393) can0 1DFF2C02#C2FFFFFFFFFF7FFF
(1693519318.535191) can0 1DFF2C02#C31B0000FFFFFFFF
(1693519318.535961) can0 0DF21464#015705FF7FFFFFFF
(1693519318.536728) can0 0DF21464#004B055F01FFFFFF
(1693519318.537483) can0 0DF21264#400BFF000046FFC4
(1693519318.538251) can0 0DF21264#41FFFFFFFFFFFFFF
(1693519318.545263) can0 0DF11305#0083E7F9FFFF7FFD
(1693519318.546469) can0 09F11205#00F18CFF7FFF7FFD
(1693519318.547350) can0 0DF11905#00FF7FEFFFFC01FF
(1693519318.548235) can0 0DF11405#0096A6FFFFFF7FFD
(1693519318.549100) can0 08FF4605#63FF7103DC2802FF
(1693519318.571157) can0 09FD0206#007C008FADFAFFFF
(1693519318.585142) can0 0DF11264#57F18CFF7F4603FD
(1693519318.595746) can0 0DF11305#00C71AFAFF2802FF
(1693519318.596618) can0 09F11205#00EB8CFF7FFF7FFD
(1693519318.597456) can0 0DF11964#570000EFFFFC01FF
(1693519318.598288) can0 0DFD0264#FF7C008FADFAFFFF
(1693519318.598959) can0 18EAFE02#00EE00
(1693519318.608375) can0 0DF11264#57EB8CFF7F4603FD
(1693519318.625952) can0 18FF3D02#419FFFFF02FFFFFF
(1693519318.626735) can0 09F10502#6015300C1FA3FEDA
(1693519318.627506) can0 09F10502#618FFFFF1713A30D
(1693519318.628269) can0 09F10502#62FF7F4607FF7FFF
(1693519318.629047) can0 09F10502#63FFFFFFFFFFFFFF
(1693519318.629847) can0 0DF20D02#0001000000000000
(1693519318.645301) can0 0DF11305#001E89FAFFFF7FFD
(1693519318.646429) can0 09F11205#00E48CFF7FFF7FFD
(1693519318.647297) can0 0DF11905#00FF7FCCFF2902FF
(1693519318.648206) can0 0DF11405#00FEA5FFFFFF7FFD
(1693519318.649102) can0 08FF4605#86FF3002B02902FF
(1693519318.665718) can0 0DF11264#57E48CFF7F4603FD
(1693519318.676503) can0 09F10D03#FF07FF7F9FFEFFFF
(1693519318.677619) can0 09F10D00#FF07FF7F0300FFFF
(1693519318.678422) can0 0DF11964#570000CCFF2902FF
(1693519318.680925) can0 09F8012B#C0B1FF20A08C7707
(1693519318.695962) can0 0DF11305#00E893FAFF2902FF
(1693519318.696775) can0 09F11205#00DD8CFF7FFF7FFD
(1693519318.721628) can0 09FD0206#007C00BEAEFAFFFF
(1693519318.733274) can0 0DF80164#C0B1FF20A08C7707
(1693519318.745125) can0 0DF11305#0070C3FAFFFF7FFD
(1693519318.746271) can0 09F11205#00D58CFF7FFF7FFD
(1693519318.747122) can0 0DF11905#00FF7F99FFAB02FF
(1693519318.747950) can0 0DF11264#57DD8CFF7F4603FD
(1693519318.748777) can0 0DFD0264#FF7C00BEAEFAFFFF
(1693519318.749588) can0 0DF11405#0065A5FFFFFF7FFD
(1693519318.750532) can0 08FF4605#EEFFDD029B2702FF
(1693519318.759423) can0 0DF11264#57D58CFF7F4603FD
(1693519318.771305) can0 0DF11964#57000099FFAB02FF
(1693519318.776302) can0 09F10D03#FF07FF7F7FFEFFFF
(1693519318.777460) can0 09F10D00#FF07FF7F0200FFFF
(1693519318.778290) can0 09F10D02#FF01A3FEFF7FFFFF
(1693519318.795676) can0 0DF11305#00C947FBFF2702FF
(1693519318.796561) can0 09F11205#00CD8CFF7FFF7FFD
(1693519318.800081) can0 0DF20D02#0001000000000000
(1693519318.821475) can0 09FD0206#007C00C9B2FAFFFF
(1693519318.828007) can0 18FF3D02#419FFFFF02FFFFFF
(1693519318.828798) can0 09F10502#8015300C3FA3FEDA
(1693519318.829562) can0 09F10502#818FFFFF1713A30D
(1693519318.830330) can0 09F10502#82FF7F4607FF7FFF
(1693519318.831108) can0 09F10502#83FFFFFFFFFFFFFF
(1693519318.831874) can0 1DFF0502#C09F1399000D0A33
(1693519318.832659) can0 1DFF0502#C13038362E302C35
(1693519318.833444) can0 1DFF0502#C22C312E352C302E
(1693519318.834224) can0 1DFF0502#C3322C302E302C2D
(1693519318.834983) can0 1DFF0502#C4312E382C302E30
(1693519318.835726) can0 1DFF0502#C5302C3231312E30
(1693519318.836475) can0 1DFF0502#C62C302E30302C32
(1693519318.837230) can0 0DF01064#FFFF904C60F7462F
(1693519318.837961) can0 1DFF0502#C731312E312C2D30
(1693519318.838699) can0 1DFF0502#C82E35352C2D302E
(1693519318.839442) can0 0DF11264#57CD8CFF7F4603FD
(1693519318.840164) can0 1DFF0502#C932352C2D322E32
(1693519318.840901) can0 1DFF0502#CA2C2D312E372C30
(1693519318.841656) can0 0DFD0264#FF7C00C9B2FAFFFF
(1693519318.842389) can0 1DFF0502#CB2C332E39392C31
(1693519318.843157) can0 1DFF0502#CC2E352C302E3638
(1693519318.843899) can0 1DFF0502#CD2C312E35302C33
(1693519318.844638) can0 1DFF0502#CE322E38302C3130
(1693519318.845382) can0 1DFF0502#CF2E30302C332E33
(1693519318.846122) can0 1DFF0502#D0332C342E36322C
(1693519318.846855) can0 1DFF0502#D13232332E32362C
(1693519318.847585) can0 1DFF0502#D2322E31392C2D31
(1693519318.848324) can0 1DFF0502#D32E382C3230342E
(1693519318.849068) can0 1DFF0502#D431302C302E302C
(1693519318.849799) can0 1DFF0502#D5342E392C32302E
(1693519318.850552) can0 1DFF0502#D6302C302E302CFF
(1693519318.851312) can0 0DF11305#0033CFFBFFFF7FFD
(1693519318.852085) can0 09F11205#00C58CFF7FFF7FFD
(1693519318.852882) can0 0DF11905#00FF7F88FFE302FF
(1693519318.853703) can0 0DF11405#00CDA4FFFFFF7FFD
(1693519318.854548) can0 08FF4605#DDFE63029A2502FF
(1693519318.855380) can0 15FD0723#FFC01372FF7FFFFF
(1693519318.856216) can0 04FF1902#419F640A10000000
(1693519318.863108) can0 0DF50B23#FFDC0800007DFCFF
(1693519318.869618) can0 09F50323#FF3500FFFF00FFFF
(1693519318.880326) can0 09F8012B#C0B1FF20A08C7707
(1693519318.894720) can0 0DF11264#57C58CFF7F4603FD
(1693519318.895659) can0 0DF11305#00D34DFCFF2502FF
(1693519318.896458) can0 09F11205#00BF8CFF7FFF7FFD
(1693519318.897272) can0 0DF11964#57000088FFE302FF
(1693519318.900678) can0 0DFD0664#FF137200000000FF
(1693519318.901506) can0 0DF50B64#FFDC0800007DFCFF
(1693519318.902327) can0 0DF50364#FF3500FFFFFFFFFF
(1693519318.903123) can0 0DF80164#C0B1FF20A08C7707
(1693519318.920660) can0 09FD0206#007C00D1B8FAFFFF
(1693519318.922386) can0 0DF11264#57BF8CFF7F4603FD
(1693519318.925039) can0 09F10D03#FF07FF7FAEFEFFFF
(1693519318.926218) can0 09F10D00#FF07FF7F0200FFFF
(1693519318.933066) can0 0DFD0264#FF7C00D1B8FAFFFF
(1693519318.945414) can0 0DF11305#00D319FDFFFF7FFD
(1693519318.946549) can0 09F11205#00B88CFF7FFF7FFD
(1693519318.947385) can0 0DF11905#00FF7F7AFFE802FF
(1693519318.948224) can0 0DF11405#0035A4FFFFFF7FFD
(1693519318.949049) can0 08FF4605#F5FDB902762502FF
(1693519318.970219) can0 19F51323#000EFFFFFFFFFFFF
(1693519318.972323) can0 19F51323#01F78D3600F78D36
(1693519318.975572) can0 19F51323#0200FFFFFFFFFFFF
(1693519318.991253) can0 0DF11264#57B88CFF7F4603FD
(1693519318.995908) can0 0DF11305#00D9F0FDFF2502FF
(1693519318.996700) can0 09F11205#00B38CFF7FFF7FFD
(1693519318.997568) can0 09FD0206#007C0011BFFAFFFF
(1693519318.998407) can0 0DF11964#5700007AFFE802FF
(1693519319.001494) can0 0DF20D02#0001000000000000
(1693519319.011327) can0 0DF11264#57B38CFF7F4603FD
(1693519319.024078) can0 0DFD0264#FF7C0011BFFAFFFF
(1693519319.025133) can0 18FF3D02#419FFFFF02FFFFFF
(1693519319.026242) can0 09F10502#A015300C3FA3FEDA
(1693519319.027014) can0 09F10502#A18FFFFF1713A30D
(1693519319.027797) can0 09F10502#A2FF7F4607FF7FFF
(1693519319.028582) can0 09F10502#A3FFFFFFFFFFFFFF
(1693519319.029373) can0 09F10D03#FF07FF7FC0FEFFFF
(1693519319.030198) can0 09F10D00#FF07FF7F0100FFFF
(1693519319.031113) can0 09F10D02#FF01A3FEFF7FFFFF
(1693519319.040664) can0 0DF21464#015705FF7FFFFFFF
(1693519319.041739) can0 0DF21464#004B055E01FFFFFF
(1693519319.042828) can0 0DF21264#400BFF000046FFC4
(1693519319.043930) can0 0DF21264#41FFFFFFFFFFFFFF
(1693519319.045001) can0 0DF11305#00CECDFEFFFF7FFD
(1693519319.046190) can0 09F11205#00AE8CFF7FFF7FFD
(1693519319.047056) can0 0DF11905#00FF7F63FFFA02FF
(1693519319.047899) can0 0DF11405#009CA3FFFFFF7FFD
(1693519319.048732) can0 08FF4605#59FFF302BE2402FF
(1693519319.070936) can0 0CFF1901#419F640B00000000
(1693519319.080530) can0 09F8012B#C0B1FF20A08C7707
(1693519319.081367) can0 0DF11264#57AE8CFF7F4603FD
(1693519319.082552) can0 0DF11964#57000063FFFA02FF
(1693519319.095622) can0 0DF11305#001F90FFFF2402FF
(1693519319.096426) can0 09F11205#00AA8CFF7FFF7FFD
(1693519319.097239) can0 0DF80164#C0B1FF20A08C7707
(1693519319.099804) can0 18EAFE02#00EE00
(1693519319.109241) can0 0DF11264#57AA8CFF7F4603FD
(1693519319.113946) can0 09F8012B#00B1FF20308C7707
(1693519319.115128) can0 09F8022B#FFFCAF87F900FFFF
(1693519319.115957) can0 0DF8052B#A02FFF594CC0409E
(1693519319.116792) can0 0DF8052B#A11600000000A8E1
(1693519319.117666) can0 0DF8052B#A2AE07000000001C
(1693519319.118530) can0 0DF8052B#A311BD01FFFFFFFF
(1693519319.119360) can0 0DF8052B#A4FFFFFF7F10FCFF
(1693519319.120201) can0 0DF8052B#A5FF7FFF7F000000
(1693519319.121084) can0 0DF8052B#A60000FFFF0100FF
(1693519319.121964) can0 0DF0102B#FFF1594CC0409E16
(1693519319.122864) can0 0CFF1901#419F640300000000
(1693519319.123775) can0 09FD0206#007C0069C3FAFFFF
(1693519319.126284) can0 18EAFE02#00EE00
(1693519319.145744) can0 0DF11305#00357B0000FF7FFD
(1693519319.146620) can0 09F11205#00A88CFF7FFF7FFD
(1693519319.147466) can0 0DF11905#00FF7F3AFFEF02FF
(1693519319.148415) can0 0DF11405#0004A3FFFFFF7FFD
(1693519319.149279) can0 08FF4605#8EFEBE02782602FF
(1693519319.166366) can0 0DF80264#FFFCAF87F900FFFF
(1693519319.175838) can0 09F10D03#FF07FF7F08FFFFFF
(1693519319.176981) can0 09F10D00#FF07FF7F0100FFFF
(1693519319.177799) can0 0DF80164#0CB1FF20298C7707
(1693519319.178617) can0 0DF80564#402BFF904C701E47
(1693519319.179424) can0 0DF80564#412F00000000A8E1
(1693519319.180411) can0 0DF80564#42AE07000000001C
(1693519319.181294) can0 0DF80564#4311BD01FFFFFFFF
(1693519319.182087) can0 0DF80564#44FFFFFF7F23FC10
(1693519319.182886) can0 0DF80564#454000FF7FFFFFFF
(1693519319.183659) can0 0DF80564#46FF01FFFFFFFFFF
(1693519319.184422) can0 0DFD0264#FF7C0069C3FAFFFF
(1693519319.185155) can0 0DF11264#57A88CFF7F4603FD
(1693519319.185906) can0 0DF11964#5700003AFFEF02FF
(1693519319.195534) can0 0DF11305#00286D01002602FF
(1693519319.196369) can0 09F11205#00A68CFF7FFF7FFD
(1693519319.197295) can0 09FD0206#007C00CDC3FAFFFF
(1693519319.200904) can0 18EAFE02#00EE00
(1693519319.202257) can0 0DF20D02#0001000000000000
(1693519319.225820) can0 18FF3D02#419FFFFF02FFFFFF
(1693519319.226671) can0 09F10502#C015300C1F51FFDA
(1693519319.227505) can0 09F10502#C18FFFFF1713A30D
(1693519319.228339) can0 09F10502#C2FF7F4607FF7FFF
(1693519319.229168) can0 09F10502#C3FFFFFFFFFFFFFF
(1693519319.229998) can0 09F10D02#FF0051FFFF7FFFFF
(1693519319.234229) can0 0DF11264#57A68CFF7F4603FD
(1693519319.245221) can0 0DF11305#00B8630200FF7FFD
(1693519319.246385) can0 09F11205#00A68CFF7FFF7FFD
(1693519319.247262) can0 0DF11905#00FF7F36FFC102FF
(1693519319.248116) can0 0DFD0264#FF7C00CDC3FAFFFF
(1693519319.248948) can0 0DF11405#006CA2FFFFFF7FFD
(1693519319.249836) can0 08FF4605#51FE86020C2502FF
(1693519319.258157) can0 0DF11264#57A68CFF7F4603FD
(1693519319.269219) can0 0DF11964#57000036FFC102FF
(1693519319.280657) can0 09F8012B#00B1FF20308C7707
(1693519319.294391) can0 0DF80164#00B1FF20308C7707
(1693519319.295725) can0 0DF11305#00FE7F02002502FF
(1693519319.296550) can0 09F11205#00A78CFF7FFF7FFD
(1693519319.302534) can0 04FF1902#419F640210000000
(1693519319.321541) can0 09FD0206#00AE0057C0FAFFFF
(1693519319.326522) can0 09F10D03#FF07FF7FE4FEFFFF
(1693519319.327661) can0 09F10D00#FF07FF7F0100FFFF
(1693519319.328534) can0 1DFF0502#E09E1399000D0A33
(1693519319.329450) can0 1DFF0502#E13038372E302C35
(1693519319.330349) can0 1DFF0502#E22C312E352C302E
(1693519319.331274) can0 1DFF0502#E3332C302E302C2D
(1693519319.332087) can0 1DFF0502#E4312E382C302E30
(1693519319.332866) can0 1DFF0502#E5302C3231312E30
(1693519319.333651) can0 1DFF0502#E62C302E30302C32
(1693519319.334420) can0 1DFF0502#E731302E392C302E
(1693519319.335189) can0 1DFF0502#E832392C2D302E32
(1693519319.335926) can0 1DFF0502#E9312C2D312E362C
(1693519319.336664) can0 1DFF0502#EA2D312E352C302C
(1693519319.337446) can0 1DFF0502#EB332E39392C312E
(1693519319.338225) can0 1DFF0502#EC352C302E36382C
(1693519319.339001) can0 1DFF0502#ED312E35302C3332
(1693519319.339788) can0 1DFF0502#EE2E38302C31302E
(1693519319.340570) can0 1DFF0502#EF30302C332E3333
(1693519319.341348) can0 1DFF0502#F02C342E36322C32
(1693519319.342122) can0 1DFF0502#F132332E35312C31
(1693519319.342909) can0 1DFF0502#F22E36372C2D312E
(1693519319.343700) can0 1DFF0502#F3382C3230342E31
(1693519319.344494) can0 1DFF0502#F4302C302E302C34
(1693519319.345274) can0 1DFF0502#F52E372C32302E30
(1693519319.346074) can0 1DFF0502#F62C302E302CFFFF
(1693519319.346938) can0 0DF11305#00EBF40300FF7FFD
(1693519319.347784) can0 09F11205#00A98CFF7FFF7FFD
(1693519319.348609) can0 0DF11905#00FF7F3DFF6702FF
(1693519319.349449) can0 0DF11405#00D3A1FFFFFF7FFD
(1693519319.350299) can0 08FF4605#38FF02027C2602FF
(1693519319.351139) can0 15FD0723#FFC01372FF7FFFFF
(1693519319.356085) can0 0DFD0264#FFAE0057C0FAFFFF
(1693519319.395996) can0 0DF11305#00AD2904002602FF
(1693519319.398232) can0 09F11205#00AD8CFF7FFF7FFD
(1693519319.401301) can0 0DF11264#57A98CFF7F4603FD
(1693519319.402134) can0 0DF11964#5700003DFF6702FF
(1693519319.402990) can0 0DFD0664#FF137200000000FF
(1693519319.403894) can0 0DF20D02#0001000000000000
(1693519319.410892) can0 0DF11264#57AD8CFF7F4603FD
(1693519319.421459) can0 09FD0206#00AE00C2B9FAFFFF
(1693519319.445677) can0 0DF11305#002FD40400FF7FFD
(1693519319.446512) can0 09F11205#00B18CFF7FFF7FFD
(1693519319.447332) can0 0DF11905#00FF7F6AFF0402FF
(1693519319.448166) can0 0DF11405#003BA1FFFFFF7FFD
(1693519319.449000) can0 08FF4605#69FD76FF1B2702FF
(1693519319.465179) can0 0DFD0264#FFAE00C2B9FAFFFF
(1693519319.473731) can0 18FF3D02#419FFFFF02FFFFFF
(1693519319.474508) can0 09F10502#E015300C1FA3FEDA
(1693519319.475286) can0 09F10502#E18FFFFF1713A30D
(1693519319.476069) can0 09F10502#E2FF7F4607FF7FFF
(1693519319.476831) can0 0DF11264#57B18CFF7F4603FD
(1693519319.477595) can0 0DF11964#5700006AFF0402FF
(1693519319.478374) can0 09F10502#E3FFFFFFFFFFFFFF
(1693519319.479178) can0 09F10D03#FF07FF7FFDFEFFFF
(1693519319.480016) can0 09F10D00#FF07FF7F0100FFFF
(1693519319.480842) can0 09F10D02#FF00A3FEFF7FFFFF
(1693519319.481665) can0 09F8012B#00B1FF20308C7707
(1693519319.494458) can0 15FD0C23#FF0000C27404FFFF
(1693519319.495549) can0 0DF11305#007C3905002702FF
(1693519319.496338) can0 09F11205#00B68CFF7FFF7FFD
(1693519319.521281) can0 09FD0206#00AE00FEB1FAFFFF
(1693519319.531857) can0 0DF80164#00B1FF20308C7707
(1693519319.532636) can0 0DF21464#015705FF7FFFFFFF
(1693519319.534107) can0 0DF11264#57B68CFF7F4603FD
(1693519319.534864) can0 0DF21464#004B055E01FFFFFF
(1693519319.535622) can0 0DF21264#400BFF000046FFC4
(1693519319.536389) can0 0DF21264#41FFFFFFFFFFFFFF
(1693519319.537332) can0 0DFD0264#FFAE00FEB1FAFFFF
(1693519319.545955) can0 0DF11305#004ED50500FF7FFD
(1693519319.546764) can0 09F11205#00BB8CFF7FFF7FFD
(1693519319.547680) can0 0DF11905#00FF7FAEFFC701FF
(1693519319.548605) can0 0DF11405#00A3A0FFFFFF7FFD
(1693519319.549482) can0 08FF4605#AE00D900DD2802FF
(1693519319.576069) can0 09F10D03#FF07FF7FF9FEFFFF
(1693519319.576959) can0 09F10D00#FF07FF7F0100FFFF
(1693519319.577791) can0 1DFF2C02#E017419F00000000
(1693519319.578697) can0 1DFF2C02#E100FFFFFF7FFFFF
(1693519319.579578) can0 1DFF2C02#E2FFFFFFFFFF7F2E
(1693519319.580434) can0 1DFF2C02#E3332C30FFFFFFFF
(1693519319.593419) can0 0DF11264#57BB8CFF7F4603FD
(1693519319.595374) can0 0DF11305#00A75B05002802FF
(1693519319.596508) can0 09F11205#00C28CFF7FFF7FFD
(1693519319.597340) can0 0DF11964#570000AEFFC701FF
(1693519319.600904) can0 0DF20D02#0001000000000000
(1693519319.609404) can0 0DF11264#57C28CFF7F4603FD
(1693519319.645654) can0 0DF11305#00DB610400FF7FFD
(1693519319.646588) can0 09F11205#00C88CFF7FFF7FFD
(1693519319.647544) can0 0DF11905#00FF7FFBFF8801FF
(1693519319.648487) can0 09FD0206#00AE0061A9FAFFFF
(1693519319.650550) can0 0DF11405#000BA0FFFFFF7FFD
(1693519319.651493) can0 08FF4605#13FF61FF1C2902FF
(1693519319.666048) can0 0DF11264#57C88CFF7F4603FD
(1693519319.676544) can0 18FF3D02#419FFFFF02FFFFFF
(1693519319.677466) can0 09F10502#0015300C1FA3FEDA
(1693519319.678403) can0 09F10502#018FFFFF1713A30D
(1693519319.679354) can0 09F10502#02FF7F4607FF7FFF
(1693519319.680282) can0 09F10502#03FFFFFFFFFFFFFF
(1693519319.681201) can0 09F10D03#FF07FF7FEEFEFFFF
(1693519319.682134) can0 0DF11964#570000FBFF8801FF
(1693519319.682996) can0 09F10D00#FF07FF7F0100FFFF
(1693519319.684965) can0 0DFD0264#FFAE0061A9FAFFFF
(1693519319.685836) can0 09F10D02#FF00A3FEFF7FFFFF
(1693519319.686809) can0 09F8012B#00B1FF20308C7707
(1693519319.696114) can0 0DF11305#00A7D904002902FF
(1693519319.698285) can0 09F11205#00CE8CFF7FFF7FFD
(1693519319.701760) can0 18EAFE02#00EE00
(1693519319.703108) can0 0DF90364#FF3000000000FFFF
(1693519319.706490) can0 0DF90464#40228828480D0040
(1693519319.707335) can0 0DF90464#41F0F8B718594C26
(1693519319.710026) can0 0DF90464#428B158BFFFFFFFF
(1693519319.710943) can0 0DF90464#431B00000033C3F4
(1693519319.711828) can0 0DF90464#44207B066F07F700
(1693519319.735408) can0 0DF80164#00B1FF20308C7707
(1693519319.745667) can0 0DF11305#0044B90300FF7FFD
(1693519319.746604) can0 09F11205#00D58CFF7FFF7FFD
(1693519319.747554) can0 0DF11905#00FF7F1A003801FF
(1693519319.748499) can0 0DF11405#00729FFFFFFF7FFD
(1693519319.749400) can0 0DF11264#57CE8CFF7F4603FD
(1693519319.751513) can0 08FF4605#7FFF55FF8D2602FF
(1693519319.760967) can0 0DF11264#57D58CFF7F4603FD
(1693519319.771511) can0 09FD0206#00AE004BA7FAFFFF
(1693519319.772328) can0 0DF11964#5700001A003801FF
(1693519319.784148) can0 0DFD0264#FFAE004BA7FAFFFF
(1693519319.795027) can0 0DF11305#0036D402002602FF
(1693519319.796151) can0 09F11205#00DB8CFF7FFF7FFD
(1693519319.801718) can0 0DF20D02#0001000000000000
(1693519319.827436) can0 09F10D03#FF07FF7FEBFEFFFF
(1693519319.828255) can0 09F10D00#FF07FF7F0100FFFF
(1693519319.829068) can0 1DFF0502#009E1399000D0A33
(1693519319.829911) can0 1DFF0502#013038382E302C35
(1693519319.830729) can0 1DFF0502#022C312E352C2D30
(1693519319.831530) can0 1DFF0502#032E322C302E302C
(1693519319.832336) can0 1DFF0502#042D312E382C302E
(1693519319.833206) can0 1DFF0502#0530302C3231312E
(1693519319.834002) can0 1DFF0502#06302C302E30302C
(1693519319.834765) can0 1DFF0502#073231312E322C30
(1693519319.835515) can0 1DFF0502#082E33332C302E30
(1693519319.836256) can0 1DFF0502#09302C2D312E362C
(1693519319.836995) can0 1DFF0502#0A2D312E392C302C
(1693519319.837730) can0 1DFF0502#0B332E39392C312E
(1693519319.838495) can0 1DFF0502#0C352C302E36382C
(1693519319.839250) can0 0DF01064#FFFF904C701E472F
(1693519319.839988) can0 1DFF0502#0D312E35302C3332
(1693519319.840732) can0 1DFF0502#0E2E38302C31302E
(1693519319.841476) can0 1DFF0502#0F30302C332E3333
(1693519319.842211) can0 1DFF0502#102C342E36322C32
(1693519319.842949) can0 1DFF0502#1132332E33312C32
(1693519319.843684) can0 1DFF0502#122E37312C2D312E
(1693519319.844431) can0 1DFF0502#13382C3230342E31
(1693519319.845211) can0 1DFF0502#14302C302E302C34
(1693519319.845951) can0 1DFF0502#152E352C32302E30
(1693519319.846713) can0 1DFF0502#162C302E302CFFFF
(1693519319.847509) can0 0DF11305#004CED0100FF7FFD
(1693519319.848293) can0 09F11205#00E08CFF7FFF7FFD
(1693519319.849116) can0 0DF11905#00FF7F2B000701FF
(1693519319.849966) can0 0DF11405#00DA9EFFFFFF7FFD
(1693519319.850837) can0 08FF4605#3300CC00152902FF
(1693519319.851672) can0 15FD0723#FFC01372FF7FFFFF
(1693519319.852485) can0 0DF11264#57DB8CFF7F4603FD
(1693519319.853329) can0 04FF1902#419F640A10000000
(1693519319.862801) can0 0DF50B23#FFDC0800007DFCFF
(1693519319.864642) can0 0DF11264#57E08CFF7F4603FD
(1693519319.865449) can0 0DF11964#5700002B000701FF
(1693519319.869402) can0 09F50323#FF3700FFFF00FFFF
(1693519319.871598) can0 09FD0206#00AE00BCA8FAFFFF
(1693519319.876010) can0 18FF3D02#419FFFFF02FFFFFF
(1693519319.876980) can0 09F10502#2015300C5FA3FEDA
(1693519319.877785) can0 0DFD0664#FF137200000000FF
(1693519319.878554) can0 0DF50B64#FFDC0800007DFCFF
(1693519319.879301) can0 09F10502#218FFFFF1713A30D
(1693519319.880087) can0 09F10502#22FF7F4607FF7FFF
(1693519319.880903) can0 09F10502#23FFFFFFFFFFFFFF
(1693519319.881688) can0 09F8012B#00B1FF20308C7707
(1693519319.882549) can0 0DF50364#FF3700FFFFFFFFFF
(1693519319.889409) can0 0DFD0264#FFAE00BCA8FAFFFF
(1693519319.895385) can0 0DF11305#00A23901002902FF
(1693519319.897223) can0 09F11205#00E58CFF7FFF7FFD
(1693519319.902424) can0 0DF80164#00B1FF20308C7707
(1693519319.915536) can0 0DF11264#57E58CFF7F4603FD
(1693519319.922917) can0 09F10D03#FF07FF7FFDFEFFFF
(1693519319.924077) can0 09F10D00#FF07FF7F0000FFFF
(1693519319.924903) can0 09F10D02#FF02A3FEFF7FFFFF
(1693519319.945506) can0 0DF11305#00F0380000FF7FFD
(1693519319.946325) can0 09F11205#00EA8CFF7FFF7FFD
(1693519319.947163) can0 0DF11905#00FF7F4000D700FF
(1693519319.948003) can0 0DF11405#00429EFFFFFF7FFD
(1693519319.948842) can0 08FF4605#B301C001A92702FF
(1693519319.970302) can0 19F51323#200EFFFFFFFFFFFF
(1693519319.972443) can0 19F51323#21F78D3600F78D36
(1693519319.975696) can0 19F51323#2200FFFFFFFFFFFF
(1693519319.977748) can0 0DF11264#57EA8CFF7F4603FD
(1693519319.994959) can0 0DF11305#007170FFFF2702FF
(1693519319.996091) can0 09F11205#00ED8CFF7FFF7FFD
(1693519319.996912) can0 0DF11964#5700004000D700FF
(1693519320.001592) can0 0DF20D02#0001000000000000
(1693519320.009216) can0 0DF11264#57ED8CFF7F4603FD
(1693519320.020938) can0 09FD0206#00AE0043AFFAFFFF
(1693519320.026399) can0 09F10D03#FF07FF7FE0FEFFFF
(1693519320.027535) can0 09F10D00#FF07FF7F0000FFFF
(1693519320.030840) can0 0DF21464#015805FF7FFFFFFF
(1693519320.031948) can0 0DF21464#004B055F01FFFFFF
(1693519320.032718) can0 0DF21264#400BFF000046FFC4
(1693519320.033488) can0 0DF21264#41FFFFFFFFFFFFFF
(1693519320.045876) can0 0DF11905#00FF7F4900C100FF
(1693519320.046685) can0 0DF11405#00B19DFFFFFF02FF
(1693519320.047503) can0 08FF4605#E8FF5F00662902FF
(1693519320.048308) can0 0DF11305#007AB9FEFFFF7FFD
(1693519320.049109) can0 09F11205#00EF8CFF7FFF7FFD
(1693519320.066097) can0 0DFD0264#FFAE0043AFFAFFFF
(1693519320.080194) can0 09F8012B#00B1FF20308C7707
(1693519320.081879) can0 0DF11964#5700004900C100FF
(1693519320.082727) can0 0DF11264#57EF8CFF7F4603FD
(1693519320.095339) can0 0DF11305#005BF7FDFFFF7FFD
(1693519320.096453) can0 09F11205#00F08CFF7FFF7FFD
(1693519320.097367) can0 0DF80164#00B1FF20308C7707
(1693519320.109101) can0 0DF11264#57F08CFF7F4603FD
(1693519320.116817) can0 09F8012B#40B0FF20B88B7707
(1693519320.117967) can0 09F8022B#FFFCE8840501FFFF
(1693519320.118789) can0 0DF8052B#C02FFF594CC0679E
(1693519320.119645) can0 0DF8052B#C1160000000070E1
(1693519320.120522) can0 0DF8052B#C2AE070000000002
(1693519320.121363) can0 0DF8052B#C311BD01FFFFFFFF
(1693519320.122202) can0 0CFF1901#419F640B00000000
(1693519320.123038) can0 0CFF1901#419F640300000000
(1693519320.123850) can0 09FD0206#00AE008AB5FAFFFF
(1693519320.124675) can0 0DF8052B#C4FFFFFF7F10FCFF
(1693519320.125523) can0 0DF8052B#C5FF7FFF7F000000
(1693519320.126369) can0 0DF8052B#C60000FFFF0100FF
(1693519320.127201) can0 0DF0102B#FFF1594CC0679E16
(1693519320.128075) can0 18FF3D02#419FFFFF02FFFFFF
(1693519320.128906) can0 09F10502#4015300C1FA3FEDA
(1693519320.129738) can0 09F10502#418FFFFF1713A30D
(1693519320.130573) can0 09F10502#42FF7F4607FF7FFF
(1693519320.131418) can0 09F10502#43FFFFFFFFFFFFFF
(1693519320.132249) can0 09F10D03#FF07FF7FB1FEFFFF
(1693519320.133100) can0 09F10D00#FF07FF7F0000FFFF
(1693519320.133953) can0 09F10D02#FF00A3FEFF7FFFFF
(1693519320.134772) can0 0DF80164#40B0FF20B88B7707
(1693519320.141905) can0 0DF80264#FFFCE8840501FFFF
(1693519320.145363) can0 0DFD0264#FFAE008AB5FAFFFF
(1693519320.146132) can0 0DF11305#007532FDFFFF7FFD
(1693519320.146972) can0 09F11205#00F08CFF7FFF7FFD
(1693519320.147846) can0 0DF11905#00FF7F4600BF00FF
(1693519320.148689) can0 0DF11405#00119DFFFFFF02FF
(1693519320.149596) can0 0DF80164#1BB0FF20B98B7707
(1693519320.150420) can0 08FF4605#0C00B800832802FF
(1693519320.159784) can0 0DF11264#57F08CFF7F4603FD
(1693519320.171834) can0 0DF11964#5700004600BF00FF
(1693519320.195788) can0 0DF11305#00B5E0FCFF2802FF
(1693519320.196610) can0 09F11205#00EE8CFF7FFF7FFD
(1693519320.199987) can0 18EAFE02#00EE00
(1693519320.201322) can0 0DF20D02#0001000000000000
(1693519320.221671) can0 09FD0206#00AE002FBCFAFFFF
(1693519320.226032) can0 09F10D03#FF07FF7F9FFEFFFF
(1693519320.227164) can0 09F10D00#FF07FF7F0000FFFF
(1693519320.245327) can0 0DF11305#009B17FDFFFF7FFD
(1693519320.246466) can0 09F11205#00EC8CFF7FFF7FFD
(1693519320.247360) can0 0DF11905#00FF7F1700E500FF
(1693519320.248357) can0 0DF11405#00799CFFFFFF7FFD
(1693519320.249314) can0 08FF4605#18FF3902172702FF
(1693519320.264370) can0 0DFD0264#FFAE002FBCFAFFFF
(1693519320.280684) can0 09F8012B#40B0FF20B88B7707
(1693519320.282305) can0 0DF11264#57EC8CFF7F4603FD
(1693519320.283110) can0 0DF11964#5700001700E500FF
(1693519320.295791) can0 0DF11305#0026C6FDFF2702FF
(1693519320.296802) can0 09F11205#00EA8CFF7FFF7FFD
(1693519320.298169) can0 0DF80164#40B0FF20B88B7707
(1693519320.298975) can0 0DF80564#402BFF904C804547
(1693519320.299777) can0 0DF80564#412F0080928778E1
(1693519320.300579) can0 0DF80564#42AE070030EFC801
(1693519320.301385) can0 0DF80564#4311BD01FFFFFFFF
(1693519320.302213) can0 0DF80564#44FFFFFF7F23FC10
(1693519320.303038) can0 0DF80564#454000FF7FFFFFFF
(1693519320.303859) can0 0DF80564#46FF01FFFFFFFFFF
(1693519320.309840) can0 0DF11264#57EA8CFF7F4603FD
(1693519320.321462) can0 09FD0206#00AE00FFC1FAFFFF
(1693519320.327981) can0 1DFF0502#20A01399000D0A33
(1693519320.328845) can0 1DFF0502#213038392E302C35
(1693519320.329613) can0 1DFF0502#222C312E352C2D30
(1693519320.330366) can0 1DFF0502#232E322C302E302C
(1693519320.331115) can0 1DFF0502#242D312E382C302E
(1693519320.331865) can0 1DFF0502#2530302C3231312E
(1693519320.332621) can0 1DFF0502#26302C302E30302C
(1693519320.333356) can0 1DFF0502#273231312E332C2D
(1693519320.334099) can0 1DFF0502#28302E32362C2D30
(1693519320.334845) can0 1DFF0502#292E30342C2D322E
(1693519320.335593) can0 1DFF0502#2A302C2D322E302C
(1693519320.336335) can0 1DFF0502#2B302C332E39392C
(1693519320.337075) can0 1DFF0502#2C312E352C302E36
(1693519320.337825) can0 1DFF0502#2D382C312E35302C
(1693519320.338596) can0 0DFD0264#FFAE00FFC1FAFFFF
(1693519320.339331) can0 1DFF0502#2E33322E38302C31
(1693519320.340112) can0 1DFF0502#2F302E30302C332E
(1693519320.340848) can0 1DFF0502#3033332C342E3632
(1693519320.341583) can0 1DFF0502#312C3232332E3130
(1693519320.342335) can0 1DFF0502#322C322E32302C2D
(1693519320.343082) can0 1DFF0502#33312E382C323034
(1693519320.343831) can0 1DFF0502#342E31302C302E30
(1693519320.344566) can0 1DFF0502#352C342E342C3230
(1693519320.345312) can0 1DFF0502#362E302C302E302C
(1693519320.346063) can0 0DF11905#00FF7FD0FF2E01FF
(1693519320.346846) can0 0DF11405#00EB9BFFFFFF02FF
(1693519320.347640) can0 08FF4605#BDFD5C02232702FF
(1693519320.348443) can0 0DF11305#002D69FEFFFF7FFD
(1693519320.350365) can0 09F11205#00E78CFF7FFF7FFD
(1693519320.353539) can0 15FD0723#FFC01372FF7FFFFF
(1693519320.354392) can0 04FF1902#419F640210000000
(1693519320.376091) can0 18FF3D02#419FFFFF02FFFFFF
(1693519320.377383) can0 09F10502#6015300C1FA3FEDA
(1693519320.378152) can0 09F10502#618FFFFF1713A30D
(1693519320.378919) can0 09F10502#62FF7F4607FF7FFF
(1693519320.379697) can0 09F10502#63FFFFFFFFFFFFFF
(1693519320.380471) can0 09F10D03#FF07FF7F9CFEFFFF
(1693519320.381303) can0 09F10D00#FF07FF7F0000FFFF
(1693519320.382140) can0 09F10D02#FF00A3FEFF7FFFFF
(1693519320.393820) can0 0DF11964#570000D0FF2E01FF
(1693519320.395381) can0 0DF11305#00161DFFFFFF7FFD
(1693519320.396523) can0 09F11205#00E58CFF7FFF7FFD
(1693519320.397448) can0 0DF11264#57E78CFF7F4603FD
(1693519320.398409) can0 0DFD0664#FF137200000000FF
(1693519320.401999) can0 0DF20D02#0001000000000000
(1693519320.408824) can0 0DF11264#57E58CFF7F4603FD
(1693519320.421256) can0 09FD0206#00AE00E9C5FAFFFF
(1693519320.445871) can0 0DF11305#00F6F3FFFFFF7FFD
(1693519320.446685) can0 09F11205#00E38CFF7FFF7FFD
(1693519320.447570) can0 0DF11905#00FF7FB8FF8E01FF
(1693519320.448425) can0 0DF11405#004F9BFFFFFF02FF
(1693519320.449278) can0 08FF4605#5BFF3401E22502FF
(1693519320.465008) can0 0DFD0264#FFAE00E9C5FAFFFF
(1693519320.480259) can0 09F8012B#40B0FF20B88B7707
(1693519320.481677) can0 0DF11264#57E38CFF7F4603FD
(1693519320.482536) can0 0DF11964#570000B8FF8E01FF
(1693519320.495455) can0 0DF11305#00F31101002502FF
(1693519320.496302) can0 09F11205#00E28CFF7FFF7FFD
(1693519320.497207) can0 09FD0206#00AE004EC7FAFFFF
(1693519320.501802) can0 0DF80164#40B0FF20B88B7707
(1693519320.508716) can0 0DF11264#57E28CFF7F4603FD
(1693519320.520658) can0 0DFD0264#FFAE004EC7FAFFFF
(1693519320.524978) can0 09F10D03#FF07FF7F9CFEFFFF
(1693519320.526156) can0 09F10D00#FF07FF7F0000FFFF
(1693519320.526986) can0 0DF21464#015805FF7FFFFFFF
(1693519320.532640) can0 0DF21464#004B055F01FFFFFF
(1693519320.533724) can0 0DF21264#400BFF000046FFC4
(1693519320.534516) can0 0DF21264#41FFFFFFFFFFFFFF
(1693519320.545471) can0 0DF11305#00916E0200FF7FFD
(1693519320.546249) can0 09F11205#00E28CFF7FFF7FFD
(1693519320.547057) can0 0DF11905#00FF7FC4FFC501FF
(1693519320.547880) can0 0DF11405#00BB9AFFFFFF7FFD
(1693519320.548710) can0 08FF4605#D6FF7201542602FF
(1693519320.580893) can0 0DF11264#57E28CFF7F4603FD
(1693519320.595806) can0 0DF11305#002A2803002602FF
(1693519320.596594) can0 09F11205#00E48CFF7FFF7FFD
(1693519320.597403) can0 09FD0206#00AE00EFC5FAFFFF
(1693519320.598238) can0 0DF11964#570000C4FFC501FF
(1693519320.601383) can0 0DF20D02#0001000000000000
(1693519320.610940) can0 0DF11264#57E48CFF7F4603FD
(1693519320.622812) can0 0DFD0264#FFAE00EFC5FAFFFF
(1693519320.624921) can0 18FF3D02#419FFFFF02FFFFFF
(1693519320.626037) can0 09F10502#8015300C1FA3FEDA
(1693519320.626796) can0 09F10502#818FFFFF1713A30D
(1693519320.627570) can0 09F10502#82FF7F4607FF7FFF
(1693519320.628360) can0 09F10502#83FFFFFFFFFFFFFF
(1693519320.629152) can0 09F10D03#FF07FF7FAAFEFFFF
(1693519320.629977) can0 09F10D00#FF07FF7F0000FFFF
(1693519320.630806) can0 09F10D02#FF00A3FEFF7FFFFF
(1693519320.631642) can0 1DFF2C02#0017419F00000000
(1693519320.632486) can0 1DFF2C02#0100FFFFFF7FFFFF
(1693519320.633313) can0 1DFF2C02#02FFFFFFFFFF7F30
(1693519320.634122) can0 1DFF2C02#032E322CFFFFFFFF
(1693519320.645721) can0 0DF11305#00905E0300FF7FFD
(1693519320.646573) can0 09F11205#00E88CFF7FFF7FFD
(1693519320.647441) can0 0DF11905#00FF7FD4FFCC01FF
(1693519320.648290) can0 0DF11405#00279AFFFFFF7FFD
(1693519320.649156) can0 08FF4605#D3011502882802FF
(1693519320.680127) can0 09F8012B#40B0FF20B88B7707
(1693519320.681718) can0 0DF11264#57E88CFF7F4603FD
(1693519320.695242) can0 0DF11305#0054C503002802FF
(1693519320.696368) can0 09F11205#00EB8CFF7FFF7FFD
(1693519320.697199) can0 0DF11964#570000D4FFCC01FF
(1693519320.698037) can0 0DF80164#40B0FF20B88B7707
(1693519320.698659) can0 18EAFE02#00EE00
(1693519320.708713) can0 0DF11264#57EB8CFF7F4603FD
(1693519320.721038) can0 09FD0206#00AE006AC2FAFFFF
(1693519320.745664) can0 0DF11905#00FF7FD8FF9A01FF
(1693519320.746513) can0 0DF11405#009A99FFFFFF02FF
(1693519320.747331) can0 08FF4605#F1FF7201462702FF
(1693519320.748146) can0 0DF11305#000B380400FF7FFD
(1693519320.748956) can0 09F11205#00F08CFF7FFF7FFD
(1693519320.766023) can0 0DFD0264#FFAE006AC2FAFFFF
(1693519320.776842) can0 09F10D03#FF07FF7FAEFEFFFF
(1693519320.777647) can0 09F10D00#FF07FF7F0000FFFF
(1693519320.778545) can0 0DF11964#570000D8FF9A01FF
(1693519320.779360) can0 0DF11264#57F08CFF7F4603FD
(1693519320.795107) can0 0DF11305#002FDD0300FF7FFD
(1693519320.796210) can0 09F11205#00F58CFF7FFF7FFD
(1693519320.801680) can0 0DF20D02#0001000000000000
(1693519320.820945) can0 09FD0206#00AE0090BDFAFFFF
(1693519320.827255) can0 18FF3D02#419FFFFF02FFFFFF
(1693519320.828343) can0 09F10502#A015300C1FA3FEDA
(1693519320.829142) can0 09F10502#A18FFFFF1713A30D
(1693519320.829956) can0 09F10502#A2FF7F4607FF7FFF
(1693519320.830779) can0 09F10502#A3FFFFFFFFFFFFFF
(1693519320.831595) can0 09F10D02#FF00A3FEFF7FFFFF
(1693519320.832447) can0 1DFF0502#409E1399000D0A33
(1693519320.833287) can0 1DFF0502#413039302E302C35
(1693519320.834043) can0 1DFF0502#422C312E352C2D30
(1693519320.834796) can0 1DFF0502#432E332C302E302C
(1693519320.835547) can0 1DFF0502#442D312E382C302E
(1693519320.836288) can0 0DF11264#57F58CFF7F4603FD
(1693519320.837024) can0 1DFF0502#4530302C3231312E
(1693519320.837772) can0 1DFF0502#46302C302E30302C
(1693519320.838514) can0 1DFF0502#473231312E342C30
(1693519320.839277) can0 1DFF0502#482E34352C302E30
(1693519320.840007) can0 1DFF0502#49342C2D312E392C
(1693519320.840745) can0 1DFF0502#4A2D322E302C302C
(1693519320.841478) can0 1DFF0502#4B332E39392C312E
(1693519320.842216) can0 1DFF0502#4C352C302E36382C
(1693519320.842954) can0 1DFF0502#4D312E35302C3332
(1693519320.843701) can0 1DFF0502#4E2E38302C31302E
(1693519320.844440) can0 1DFF0502#4F30302C332E3333
(1693519320.845177) can0 1DFF0502#502C342E36322C32
(1693519320.845911) can0 1DFF0502#5132332E36342C32
(1693519320.846649) can0 1DFF0502#522E30302C2D312E
(1693519320.847386) can0 1DFF0502#53382C3230342E31
(1693519320.848134) can0 1DFF0502#54302C302E302C34
(1693519320.848873) can0 1DFF0502#552E322C32302E30
(1693519320.849623) can0 1DFF0502#562C302E302CFFFF
(1693519320.850388) can0 0DF11305#0091AC0300FF7FFD
(1693519320.851198) can0 09F11205#00FA8CFF7FFF7FFD
(1693519320.852023) can0 0DF11905#00FF7FDDFF6A01FF
(1693519320.852959) can0 0DF11405#00FE98FFFFFF02FF
(1693519320.853864) can0 08FF4605#3AFF4801F52502FF
(1693519320.854780) can0 15FD0723#FFC01472FF7FFFFF
(1693519320.855697) can0 04FF1902#419F640A10000000
(1693519320.862555) can0 0DF50B23#FFDC0800007DFCFF
(1693519320.870099) can0 09F50323#FF3500FFFF00FFFF
(1693519320.875908) can0 0DFD0264#FFAE0090BDFAFFFF
(1693519320.876681) can0 0DF01064#FFFF904C8045472F
(1693519320.877441) can0 09F10D03#FF07FF7F7FFEFFFF
(1693519320.878230) can0 09F10D00#FF07FF7F0000FFFF
(1693519320.880952) can0 09F8012B#40B0FF20B88B7707
(1693519320.889701) can0 0DF11264#57FA8CFF7F4603FD
(1693519320.890481) can0 0DF11964#570000DDFF6A01FF
(1693519320.894908) can0 0DF11305#00F4AE02002502FF
(1693519320.896069) can0 09F11205#00FF8CFF7FFF7FFD
(1693519320.896907) can0 0DFD0664#FF147200000000FF
(1693519320.897742) can0 0DF50B64#FFDC0800007DFCFF
(1693519320.898559) can0 0DF50364#FF3500FFFFFFFFFF
(1693519320.901583) can0 0DF80164#40B0FF20B88B7707
(1693519320.920704) can0 09FD0206#00AE00B3B8FAFFFF
(1693519320.922323) can0 0DF11264#57FF8CFF7F4603FD
(1693519320.945309) can0 0DF11305#00DC450200FF7FFD
(1693519320.946459) can0 09F11205#00048DFF7FFF7FFD
(1693519320.947324) can0 0DF11905#00FF7FDCFF3901FF
(1693519320.948281) can0 0DFD0264#FFAE00B3B8FAFFFF
(1693519320.949100) can0 0DF11405#006998FFFFFF7FFD
(1693519320.949924) can0 08FF4605#CB00FE01932502FF
(1693519320.957350) can0 0DF90364#FF3000000000FFFF
(1693519320.958382) can0 0DF11264#57048DFF7F4603FD
(1693519320.959468) can0 0DF90464#40228828480D0040
(1693519320.960556) can0 0DF90464#41108A9818594C26
(1693519320.961314) can0 0DF90464#428B158BFFFFFFFF
(1693519320.962062) can0 0DF90464#431B00000033C3F4
(1693519320.962805) can0 0DF90464#44207B066F070601
(1693519320.970216) can0 0DF11964#570000DCFF3901FF
(1693519320.970981) can0 19F51323#400EFFFFFFFFFFFF
(1693519320.972397) can0 19F51323#41F88D3600F88D36
(1693519320.975637) can0 19F51323#4200FFFFFFFFFFFF
(1693519320.979979) can0 11F80F2B#C01A12C82BD40F50
(1693519320.981084) can0 11F80F2B#C1297D07C0B10321
(1693519320.981818) can0 11F80F2B#C2676B896801D308
(1693519320.982570) can0 11F80F2B#C300FFFF0070FEFF
(1693519320.995042) can0 0DF11305#000D1F01002502FF
(1693519320.996161) can0 09F11205#00098DFF7FFF7FFD
(1693519321.001635) can0 0DF20D02#0001000000000000
(1693519321.020499) can0 09FD0206#00AE0066B4FAFFFF
(1693519321.025967) can0 0DFB0704#20131CEAEE001CEA
(1693519321.026882) can0 18FF3D02#419FFFFF02FFFFFF
(1693519321.027649) can0 09F10502#C015300C1FA3FEDA
(1693519321.028409) can0 09F10502#C18FFFFF1713A30D
(1693519321.029301) can0 0DF11264#57098DFF7F4603FD
(1693519321.030097) can0 09F10502#C2FF7F4607FF7FFF
(1693519321.030910) can0 09F10502#C3FFFFFFFFFFFFFF
(1693519321.031723) can0 09F10D03#FF07FF7FA3FEFFFF
(1693519321.032627) can0 09F10D00#FF07FF7F0000FFFF
(1693519321.033461) can0 09F10D02#FF00A3FEFF7FFFFF
(1693519321.034369) can0 0DFB0704#21EE003930303037
(1693519321.035232) can0 0DFB0704#2231010000A861FF
(1693519321.036093) can0 0DFD0264#FFAE0066B4FAFFFF
(1693519321.037050) can0 0DF21464#015705FF7FFFFFFF
(1693519321.038202) can0 0DF21464#004B055F01FFFFFF
(1693519321.039057) can0 0DF21264#400BFF000046FFC4
(1693519321.039899) can0 0DF21264#41FFFFFFFFFFFFFF
(1693519321.045716) can0 0DF11305#000A4B0000FF7FFD
(1693519321.046541) can0 09F11205#000E8DFF7FFF7FFD
(1693519321.047437) can0 0DF11905#00FF7FE2FF0F01FF
(1693519321.048343) can0 0DF11405#00D597FFFFFF7FFD
(1693519321.049220) can0 08FF4605#F7FF8200272602FF
(1693519321.080094) can0 09F8012B#40B0FF20B88B7707
(1693519321.089975) can0 0DF11264#570E8DFF7F4603FD
(1693519321.095144) can0 0DF11305#002121FFFF2602FF
(1693519321.096278) can0 09F11205#00128DFF7FFF7FFD
(1693519321.097102) can0 0DF11964#570000E2FF0F01FF
(1693519321.097908) can0 0DF80164#40B0FF20B88B7707
(1693519321.109181) can0 0DF11264#57128DFF7F4603FD
(1693519321.114511) can0 09F8012B#40AFFF20388B7707
(1693519321.115291) can0 09F8022B#FFFCF285F500FFFF
(1693519321.116104) can0 0DF8052B#E02FFF594CC08E9E
(1693519321.116978) can0 0DF8052B#E1160000000040E1
(1693519321.117861) can0 0DF8052B#E2AE0700000000E4
(1693519321.118734) can0 0DF8052B#E310BD01FFFFFFFF
(1693519321.119601) can0 0DF8052B#E4FFFFFF7F10FCFF
(1693519321.120470) can0 0DF8052B#E5FF7FFF7F000000
(1693519321.121323) can0 0DF8052B#E60000FFFF0100FF
(1693519321.122134) can0 0DF0102B#FFF1594CC08E9E16
(1693519321.122995) can0 0CFF1901#419F640B00000000
(1693519321.123907) can0 0CFF1901#419F640300000000
(1693519321.124755) can0 09FD0206#00AE00A3B1FAFFFF
(1693519321.128189) can0 0DF80164#40AFFF20388B7707
(1693519321.141164) can0 0DF80264#FFFCF285F500FFFF
(1693519321.144977) can0 0DF11305#00648CFDFFFF7FFD
(1693519321.146147) can0 09F11205#00148DFF7FFF7FFD
(1693519321.147015) can0 0DF11905#00FF7FF2FFE900FF
(1693519321.147912) can0 0DF80164#4DAFFF20388B7707
(1693519321.148745) can0 0DFD0264#FFAE00A3B1FAFFFF
(1693519321.149601) can0 0DF11405#004197FFFFFF7FFD
(1693519321.150517) can0 08FF4605#0B01DFFF532602FF
(1693519321.159317) can0 0DF11264#57148DFF7F4603FD
(1693519321.171385) can0 0DF11964#570000F2FFE900FF
(1693519321.176691) can0 09F10D03#FF07FF7F94FEFFFF
(1693519321.177497) can0 09F10D00#FF07FF7F0000FFFF
(1693519321.194902) can0 0DF11305#008E8FFCFF2602FF
(1693519321.196012) can0 09F11205#00158DFF7FFF7FFD
(1693519321.201268) can0 18EAFE02#00EE00
(1693519321.202592) can0 0DF20D02#0001000000000000
(1693519321.220781) can0 09FD0206#00AE00FAB0FAFFFF
(1693519321.242712) can0 0DF11264#57158DFF7F4603FD
(1693519321.245347) can0 0DF11305#00507AFAFFFF7FFD
(1693519321.246536) can0 09F11205#00148DFF7FFF7FFD
(1693519321.247377) can0 0DF11905#00FF7FFCFFE400FF
(1693519321.248311) can0 0DFD0264#FFAE00FAB0FAFFFF
(1693519321.250050) can0 0DF11405#00AC96FFFFFF7FFD
(1693519321.250873) can0 08FF4605#56FFDE01F32502FF
(1693519321.259651) can0 0DF11264#57148DFF7F4603FD
(1693519321.271140) can0 0DF11964#570000FCFFE400FF
(1693519321.276628) can0 18FF3D02#419FFFFF02FFFFFF
(1693519321.277384) can0 09F10502#E015300C1FA3FEDA
(1693519321.278144) can0 09F10502#E18FFFFF1713A30D
(1693519321.278915) can0 09F10502#E2FF7F4607FF7FFF
(1693519321.279691) can0 09F10502#E3FFFFFFFFFFFFFF
(1693519321.280464) can0 09F10D03#FF07FF7F91FEFFFF
(1693519321.281286) can0 09F10D00#FF07FF7F0000FFFF
(1693519321.282111) can0 09F10D02#FF00A3FEFF7FFFFF
(1693519321.282917) can0 09F8012B#40AFFF20388B7707
(1693519321.295116) can0 0DF11305#002862FAFF2502FF
(1693519321.296239) can0 09F11205#00118DFF7FFF7FFD
(1693519321.320877) can0 09FD0206#00AE0031B2FAFFFF
(1693519321.327401) can0 1DFF0502#609F1399000D0A33
(1693519321.328216) can0 1DFF0502#613039312E302C35
(1693519321.328978) can0 1DFF0502#622C312E352C2D30
(1693519321.329725) can0 1DFF0502#632E342C302E302C
(1693519321.330502) can0 1DFF0502#642D312E382C302E
(1693519321.331256) can0 1DFF0502#6530302C3231312E
(1693519321.332014) can0 1DFF0502#66302C302E30302C
(1693519321.332746) can0 1DFF0502#673231312E352C2D
(1693519321.333493) can0 1DFF0502#68302E36362C302E
(1693519321.334232) can0 1DFF0502#6930302C2D322E31
(1693519321.334971) can0 1DFF0502#6A2C2D322E322C30
(1693519321.335712) can0 1DFF0502#6B2C332E39392C31
(1693519321.336457) can0 1DFF0502#6C2E352C302E3638
(1693519321.337439) can0 1DFF0502#6D2C312E35302C33
(1693519321.338192) can0 1DFF0502#6E322E38302C3130
(1693519321.338939) can0 1DFF0502#6F2E30302C332E33
(1693519321.339678) can0 1DFF0502#70332C342E36322C
(1693519321.340413) can0 1DFF0502#713232332E35312C
(1693519321.341161) can0 0DF80164#40AFFF20388B7707
(1693519321.341911) can0 0DF80564#402BFF904C906C47
(1693519321.342647) can0 0DF80564#412F0080C8EC3CE1
(1693519321.343387) can0 0DF80564#42AE0700308AFBE3
(1693519321.344134) can0 0DF80564#4310BD01FFFFFFFF
(1693519321.344858) can0 1DFF0502#72322E35322C2D31
(1693519321.345596) can0 1DFF0502#732E382C3230342E
(1693519321.346350) can0 0DF80564#44FFFFFF7F23FC10
(1693519321.347106) can0 0DF80564#454000FF7FFFFFFF
(1693519321.347865) can0 0DF80564#46FF01FFFFFFFFFF
(1693519321.348596) can0 0DF11264#57118DFF7F4603FD
(1693519321.349343) can0 0DFD0264#FFAE0031B2FAFFFF
(1693519321.350080) can0 1DFF0502#7431302C302E302C
(1693519321.350821) can0 1DFF0502#75342E302C32302E
(1693519321.351571) can0 1DFF0502#76302C302E302CFF
(1693519321.352332) can0 0DF11305#004157F9FFFF7FFD
(1693519321.353116) can0 09F11205#000E8DFF7FFF7FFD
(1693519321.353948) can0 0DF11905#00FF7FFAFFFF00FF
(1693519321.354804) can0 0DF11405#001896FFFFFF7FFD
(1693519321.355631) can0 08FF4605#A8013604A22402FF
(1693519321.356491) can0 15FD0723#FFC01472FF7FFFFF
(1693519321.375127) can0 09F10D03#FF07FF7F94FEFFFF
(1693519321.376248) can0 09F10D00#FF07FF7F0000FFFF
(1693519321.395585) can0 0DF11305#00DAE5F7FF2402FF
(1693519321.396426) can0 09F11205#00098DFF7FFF7FFD
(1693519321.397235) can0 0DF11264#570E8DFF7F4603FD
(1693519321.398236) can0 0DF11964#570000FAFFFF00FF
(1693519321.399057) can0 0DFD0664#FF147200000000FF
(1693519321.401084) can0 0DF20D02#0001000000000000
(1693519321.401917) can0 04FF1902#419F640210000000
(1693519321.409753) can0 0DF11264#57098DFF7F4603FD
(1693519321.421541) can0 09FD0206#00AE00F2B4FAFFFF
(1693519321.445071) can0 0DF11305#00B279F9FFFF7FFD
(1693519321.446238) can0 09F11205#00028DFF7FFF7FFD
(1693519321.447086) can0 0DF11905#00FF7FF1FF3D01FF
(1693519321.447935) can0 0DF11405#008395FFFFFF7FFD
(1693519321.448759) can0 08FF4605#C2FF2201FD2502FF
(1693519321.465386) can0 0DFD0264#FFAE00F2B4FAFFFF
(1693519321.475277) can0 18FF3D02#419FFFFF02FFFFFF
(1693519321.476370) can0 09F10502#0015300C1FA3FEDA
(1693519321.477150) can0 09F10502#018FFFFF1713A30D
(1693519321.477916) can0 0DF11264#57028DFF7F4603FD
(1693519321.478671) can0 0DF11964#570000F1FF3D01FF
(1693519321.479430) can0 09F10502#02FF7F4607FF7FFF
(1693519321.480212) can0 09F10502#03FFFFFFFFFFFFFF
(1693519321.481004) can0 09F10D03#FF07FF7FAAFEFFFF
(1693519321.481959) can0 09F10D00#FF07FF7F0000FFFF
(1693519321.482894) can0 09F10D02#FF00A3FEFF7FFFFF
(1693519321.483746) can0 09F8012B#40AFFF20388B7707
(1693519321.494917) can0 15FD0C23#FF0000C87404FFFF
(1693519321.495717) can0 0DF11305#008C42F8FF2502FF
(1693519321.496519) can0 09F11205#00FC8CFF7FFF7FFD
(1693519321.520672) can0 09FD0206#00AE0095B8FAFFFF
(1693519321.533583) can0 0DF21464#015705FF7FFFFFFF
(1693519321.536140) can0 0DF80164#40AFFF20388B7707
(1693519321.541044) can0 0DF21464#004B055F01FFFFFF
(1693519321.542143) can0 0DF21264#400BFF000046FFC4
(1693519321.542897) can0 0DF11264#57FC8CFF7F4603FD
(1693519321.543646) can0 0DFD0264#FFAE0095B8FAFFFF
(1693519321.544414) can0 0DF21264#41FFFFFFFFFFFFFF
(1693519321.545410) can0 0DF11305#00A3FBF8FFFF7FFD
(1693519321.546181) can0 09F11205#00F48CFF7FFF7FFD
(1693519321.547003) can0 0DF11905#00FF7FC7FFA801FF
(1693519321.547838) can0 0DF11405#00EF94FFFFFF7FFD
(1693519321.548685) can0 08FF4605#67FDDF016A2502FF
(1693519321.595766) can0 0DF11305#00EC73F9FF2502FF
(1693519321.596560) can0 09F11205#00ED8CFF7FFF7FFD
(1693519321.597452) can0 0DF11264#57F48CFF7F4603FD
(1693519321.598290) can0 0DF11964#570000C7FFA801FF
(1693519321.601240) can0 0DF20D02#0001000000000000
(1693519321.608861) can0 0DF11264#57ED8CFF7F4603FD
(1693519321.626002) can0 09F10D03#FF07FF7F98FEFFFF
(1693519321.627276) can0 09F10D00#FF07FF7F0000FFFF
(1693519321.645473) can0 0DF11305#008DD8F9FFFF7FFD
(1693519321.646288) can0 09F11205#00E78CFF7FFF7FFD
(1693519321.647128) can0 0DF11905#00FF7F75FF1502FF
(1693519321.647970) can0 0DF11405#005B94FFFFFF7FFD
(1693519321.648810) can0 08FF4605#49FE10035B2502FF
(1693519321.664966) can0 0DF11264#57E78CFF7F4603FD
(1693519321.671424) can0 09FD0206#00AE009DBCFAFFFF
(1693519321.672876) can0 0DF11964#57000075FF1502FF
(1693519321.675824) can0 18FF3D02#419FFFFF02FFFFFF
(1693519321.676945) can0 09F10502#2015300C1FA3FEDA
(1693519321.677781) can0 09F10502#218FFFFF1713A30D
(1693519321.678565) can0 09F10502#22FF7F4607FF7FFF
(1693519321.679350) can0 09F10502#23FFFFFFFFFFFFFF
(1693519321.680137) can0 09F10D02#FF00A3FEFF7FFFFF
(1693519321.680954) can0 1DFF2C02#2017419F00000000
(1693519321.681768) can0 1DFF2C02#2100FFFFFF7FFFFF
(1693519321.682559) can0 09F8012B#40AFFF20388B7707
(1693519321.683404) can0 1DFF2C02#22FFFFFFFFFF7F30
(1693519321.684250) can0 1DFF2C02#232E342CFFFFFFFF
(1693519321.685223) can0 0DFD0264#FFAE009DBCFAFFFF
(1693519321.695466) can0 0DF80164#40AFFF20388B7707
(1693519321.696339) can0 0DF11305#00A51CFBFF2502FF
(1693519321.697208) can0 09F11205#00E08CFF7FFF7FFD
(1693519321.702069) can0 18EAFE02#00EE00
(1693519321.725951) can0 09F10D03#FF07FF7FAAFEFFFF
(1693519321.726879) can0 09F10D00#FF07FF7FFFFFFFFF
(1693519321.728197) can0 1DF11A07#FFFFFFFF4603FFFF
(1693519321.745512) can0 0DF11305#000110FCFFFF7FFD
(1693519321.746561) can0 09F11205#00D98CFF7FFF7FFD
(1693519321.747494) can0 0DF11905#00FF7F5BFF4802FF
(1693519321.748404) can0 0DF11405#00C693FFFFFF7FFD
(1693519321.749298) can0 08FF4605#E7FE5301FF2702FF
(1693519321.750205) can0 0DF11264#57E08CFF7F4603FD
(1693519321.771516) can0 09FD0206#00AE00A6BCFAFFFF
(1693519321.789640) can0 0DF11264#57D98CFF7F4603FD
(1693519321.795408) can0 0DF11305#00A4E4FCFF2702FF
(1693519321.796560) can0 09F11205#00D38CFF7FFF7FFD
(1693519321.802165) can0 0DF20D02#0001000000000000
(1693519321.803833) can0 0DF11964#5700005BFF4802FF
(1693519321.804769) can0 0DFD0264#FFAE00A6BCFAFFFF
(1693519321.827041) can0 1DFF0502#809F1399000D0A33
(1693519321.827970) can0 1DFF0502#813039322E302C35
(1693519321.828949) can0 1DFF0502#822C312E352C302E
(1693519321.829846) can0 1DFF0502#83312C302E302C2D
(1693519321.830725) can0 0DF11264#57D38CFF7F4603FD
(1693519321.831587) can0 1DFF0502#84312E382C302E30
(1693519321.832460) can0 1DFF0502#85302C3231312E30
(1693519321.833340) can0 1DFF0502#862C302E30302C32
(1693519321.834203) can0 1DFF0502#8731312E322C2D30
(1693519321.835107) can0 1DFF0502#882E33362C2D302E
(1693519321.835983) can0 1DFF0502#8932302C2D322E30
(1693519321.836854) can0 1DFF0502#8A2C2D312E382C30
(1693519321.837715) can0 1DFF0502#8B2C332E39392C31
(1693519321.838593) can0 1DFF0502#8C2E352C302E3638
(1693519321.839464) can0 1DFF0502#8D2C312E35302C33
(1693519321.840340) can0 1DFF0502#8E322E38302C3130
(1693519321.841219) can0 1DFF0502#8F2E30302C332E33
(1693519321.842082) can0 1DFF0502#90332C342E36322C
(1693519321.842946) can0 1DFF0502#913232332E39352C
(1693519321.843806) can0 1DFF0502#92322E31392C2D31
(1693519321.844678) can0 1DFF0502#932E382C3230342E
(1693519321.845562) can0 0DF01064#FFFF904C906C472F
(1693519321.846428) can0 1DFF0502#9431302C302E302C
(1693519321.847317) can0 1DFF0502#95332E392C32302E
(1693519321.848196) can0 1DFF0502#96302C302E302CFF
(1693519321.849082) can0 0DF11305#006750FDFFFF7FFD
(1693519321.849989) can0 09F11205#00CE8CFF7FFF7FFD
(1693519321.850920) can0 0DF11905#00FF7F70FF4E02FF
(1693519321.851883) can0 0DF11405#003293FFFFFF7FFD
(1693519321.852835) can0 08FF4605#9BFE7501ED2602FF
(1693519321.853813) can0 15FD0723#FFC01372FF7FFFFF
(1693519321.854780) can0 09FD0206#00AE0006BAFAFFFF
(1693519321.862681) can0 0DF50B23#FFDC0800007DFCFF
(1693519321.869328) can0 09F50323#FF3500FFFF00FFFF
(1693519321.873808) can0 18FF3D02#419FFFFF02FFFFFF
(1693519321.874838) can0 09F10D03#FF07FF7FAAFEFFFF
(1693519321.875929) can0 09F10D00#FF07FF7FFFFFFFFF
(1693519321.880542) can0 09F8012B#40AFFF20388B7707
(1693519321.894654) can0 0DF11264#57CE8CFF7F4603FD
(1693519321.895723) can0 0DF11305#005056FDFF2602FF
(1693519321.896612) can0 09F11205#00C98CFF7FFF7FFD
(1693519321.897733) can0 0DF11964#57000070FF4E02FF
(1693519321.898674) can0 0DFD0664#FF137200000000FF
(1693519321.899602) can0 0DFD0264#FFAE0006BAFAFFFF
(1693519321.900564) can0 0DF50B64#FFDC0800007DFCFF
(1693519321.901483) can0 0DF50364#FF3500FFFFFFFFFF
(1693519321.902422) can0 0DF80164#40AFFF20388B7707
(1693519321.903377) can0 04FF1902#419F640A10000000
(1693519321.909647) can0 0DF11264#57C98CFF7F4603FD
(1693519321.926114) can0 09F10502#4015300C3FA3FEDA
(1693519321.927289) can0 09F10502#418FFFFF1713A30D
(1693519321.928171) can0 09F10502#42FF7F4607FF7FFF
(1693519321.929052) can0 09F10502#43FFFFFFFFFFFFFF
(1693519321.929923) can0 09F10D02#FF01A3FEFF7FFFFF
(1693519321.945679) can0 0DF11305#00139BFDFFFF7FFD
(1693519321.946577) can0 09F11205#00C48CFF7FFF7FFD
(1693519321.947591) can0 0DF11905#00FF7F90FF4002FF
(1693519321.948613) can0 0DF11405#009D92FFFFFF7FFD
(1693519321.949623) can0 08FF4605#FBFEBC00382902FF
(1693519321.969679) can0 19F51323#600EFFFFFFFFFFFF
(1693519321.970792) can0 09FD0206#00AE0062B5FAFFFF
(1693519321.973016) can0 19F51323#61F88D3600F88D36
(1693519321.975296) can0 19F51323#6200FFFFFFFFFFFF
(1693519321.976437) can0 09F10D03#FF07FF7FAEFEFFFF
(1693519321.977595) can0 09F10D00#FF07FF7FFFFFFFFF
(1693519321.982052) can0 0DF11264#57C48CFF7F4603FD
(1693519321.996041) can0 0DF11305#005AFEFDFF2902FF
(1693519321.997083) can0 09F11205#00BF8CFF7FFF7FFD
(1693519321.998202) can0 0DF11964#57000090FF4002FF
(1693519321.999219) can0 0DFD0264#FFAE0062B5FAFFFF
(1693519322.001630) can0 0DF20D02#0001000000000000
(1693519322.010216) can0 0DF11264#57BF8CFF7F4603FD
(1693519322.028863) can0 0DF21464#015805FF7FFFFFFF
(1693519322.032118) can0 0DF21464#004B056101FFFFFF
(1693519322.033256) can0 0DF21264#400BFF000046FFC4
(1693519322.034508) can0 0DF21264#41FFFFFFFFFFFFFF
(1693519322.045493) can0 0DF11305#002B3BFEFFFF7FFD
(1693519322.047661) can0 09F11205#00BB8CFF7FFF7FFD
(1693519322.049844) can0 0DF11905#00FF7FB7FF3002FF
(1693519322.050822) can0 0DF11405#000992FFFFFF7FFD
(1693519322.051762) can0 08FF4605#64FFB901E02802FF
(1693519322.069691) can0 0DF11264#57BB8CFF7F4603FD
(1693519322.071525) can0 09FD0206#00AE00FCAFFAFFFF
(1693519322.073156) can0 0DF11964#570000B7FF3002FF
(1693519322.076006) can0 18FF3D02#419FFFFF02FFFFFF
(1693519322.077186) can0 09F10D03#FF07FF7F9FFEFFFF
(1693519322.078176) can0 09F10D00#FF07FF7FFFFFFFFF
(1693519322.080534) can0 09F8012B#40AFFF20388B7707
(1693519322.085432) can0 0DFD0264#FFAE00FCAFFAFFFF
(1693519322.095721) can0 0DF11305#001CD1FEFF2802FF
(1693519322.096643) can0 09F11205#00B78CFF7FFF7FFD
(1693519322.097551) can0 0DF80164#40AFFF20388B7707
(1693519322.117363) can0 09F8012B#80AEFF20D08A7707
(1693519322.118351) can0 09F8022B#FFFC1086F900FFFF
(1693519322.119296) can0 0DF8052B#002FFF594CE0B59E
(1693519322.120234) can0 0DF8052B#01160000000010E1
(1693519322.121238) can0 0DF8052B#02AE0700000000CA
(1693519322.122242) can0 0DF8052B#0310BD01FFFFFFFF
(1693519322.123174) can0 0CFF1901#419F640B00000000
(1693519322.124090) can0 0CFF1901#419F640300000000
(1693519322.124998) can0 0DF8052B#04FFFFFF7F10FCFF
(1693519322.125913) can0 0DF8052B#05FF7FFF7F000000
(1693519322.126832) can0 0DF8052B#060000FFFF0100FF
(1693519322.127754) can0 0DF0102B#FFF1594CE0B59E16
(1693519322.128675) can0 09F10502#6015300C1FA3FEDA
(1693519322.129567) can0 09F10502#618FFFFF1713A30D
(1693519322.130538) can0 09F10502#62FF7F4607FF7FFF
(1693519322.131479) can0 09F10502#63FFFFFFFFFFFFFF
(1693519322.132428) can0 09F10D02#FF00A3FEFF7FFFFF
(1693519322.145140) can0 0DF11905#00FF7FD9FF1B02FF
(1693519322.146286) can0 0DF11405#007C91FFFFFF02FF
(1693519322.147196) can0 08FF4605#63FF5B036E2A02FF
(1693519322.148105) can0 0DF11305#003963FEFFFF7FFD
(1693519322.149016) can0 09F11205#00B48CFF7FFF7FFD
(1693519322.154187) can0 0DF80264#FFFC1086F900FFFF
(1693519322.171507) can0 09FD0206#00AE00CEABFAFFFF
(1693519322.173367) can0 0DF80164#7FAEFF20C88A7707
(1693519322.174261) can0 0DF11964#570000D9FF1B02FF
(1693519322.175198) can0 0DF11264#57B48CFF7F4603FD
(1693519322.195375) can0 0DF11305#00F3D7FEFFFF7FFD
(1693519322.196505) can0 09F11205#00B18CFF7FFF7FFD
(1693519322.197747) can0 0DFD0264#FFAE00CEABFAFFFF
(1693519322.200831) can0 18EAFE02#00EE00
(1693519322.201816) can0 0DF20D02#0001000000000000
(1693519322.210056) can0 0DF11264#57B18CFF7F4603FD
(1693519322.226169) can0 09F10D03#FF07FF7F91FEFFFF
(1693519322.227419) can0 09F10D00#FF07FF7FFFFFFFFF
(1693519322.228391) can0 0DF90364#FF3000000000FFFF
(1693519322.230762) can0 0DF90464#40228828480D0040
(1693519322.231931) can0 0DF90464#41206EB818594C26
(1693519322.232952) can0 0DF90464#428B158BFFFFFFFF
(1693519322.233955) can0 0DF90464#431B00000033C3F4
(1693519322.234950) can0 0DF90464#44207B066F07F700
(1693519322.245009) can0 0DF11305#00C941FFFFFF7FFD
(1693519322.246173) can0 09F11205#00AE8CFF7FFF7FFD
(1693519322.247253) can0 0DF11905#00FF7FF2FF0802FF
(1693519322.248251) can0 0DF11405#00E190FFFFFF02FF
(1693519322.249223) can0 08FF4605#D7FFF0026F2802FF
(1693519322.266006) can0 0DF11264#57AE8CFF7F4603FD
(1693519322.275617) can0 18FF3D02#419FFFFF02FFFFFF
(1693519322.277260) can0 0DF11964#570000F2FF0802FF
(1693519322.279939) can0 09F8012B#80AEFF20D08A7707
(1693519322.293187) can0 0DF80164#80AEFF20D08A7707
(1693519322.295433) can0 0DF11305#00CE88FEFF2802FF
(1693519322.296622) can0 09F11205#00AB8CFF7FFF7FFD
(1693519322.320773) can0 09FD0206#00AE00B1AAFAFFFF
(1693519322.323550) can0 09F10502#8015300C3FA3FEDA
(1693519322.324653) can0 09F10502#818FFFFF1713A30D
(1693519322.325744) can0 09F10502#82FF7F4607FF7FFF
(1693519322.326738) can0 09F10502#83FFFFFFFFFFFFFF
(1693519322.327794) can0 09F10D03#FF07FF7FAAFEFFFF
(1693519322.328912) can0 09F10D00#FF07FF7FFFFFFFFF
(1693519322.330004) can0 09F10D02#FF01A3FEFF7FFFFF
(1693519322.345659) can0 0DF11905#00FF7FFBFFF301FF
(1693519322.346746) can0 0DF11405#005890FFFFFF02FF
(1693519322.347724) can0 08FF4605#52005E02BC2802FF
(1693519322.348697) can0 0DF11305#00AE7CFEFFFF7FFD
(1693519322.349673) can0 09F11205#00A88CFF7FFF7FFD
(1693519322.350674) can0 15FD0723#FFC01372FF7FFFFF
(1693519322.351772) can0 1DFF0502#A09F1399000D0A33
(1693519322.352861) can0 1DFF0502#A13039332E302C35
(1693519322.353898) can0 1DFF0502#A22C312E352C302E
(1693519322.354979) can0 1DFF0502#A3322C302E302C2D
(1693519322.355978) can0 1DFF0502#A4312E382C302E30
(1693519322.356963) can0 1DFF0502#A5302C3231312E30
(1693519322.357935) can0 1DFF0502#A62C302E30302C32
(1693519322.358917) can0 1DFF0502#A731312E302C2D30
(1693519322.359994) can0 1DFF0502#A82E31372C2D302E
(1693519322.361060) can0 1DFF0502#A932302C2D322E30
(1693519322.362111) can0 0DFD0264#FFAE00B1AAFAFFFF
(1693519322.363062) can0 1DFF0502#AA2C2D312E362C30
(1693519322.364114) can0 1DFF0502#AB2C332E39392C31
(1693519322.365193) can0 1DFF0502#AC2E352C302E3638
(1693519322.366177) can0 1DFF0502#AD2C312E35302C33
(1693519322.367156) can0 1DFF0502#AE322E38302C3130
(1693519322.368105) can0 1DFF0502#AF2E30302C332E33
(1693519322.369059) can0 1DFF0502#B0332C342E36322C
(1693519322.369989) can0 1DFF0502#B13232342E32342C
(1693519322.370933) can0 1DFF0502#B2322E36362C2D31
(1693519322.371883) can0 1DFF0502#B32E382C3230342E
(1693519322.372826) can0 1DFF0502#B431302C302E302C
(1693519322.373737) can0 1DFF0502#B5332E372C32302E
(1693519322.374658) can0 1DFF0502#B6302C302E302CFF
(1693519322.395695) can0 0DF11305#004DBAFEFFFF7FFD
(1693519322.396639) can0 09F11205#00A58CFF7FFF7FFD
(1693519322.398021) can0 0DF11964#570000FBFFF301FF
(1693519322.398928) can0 0DF11264#57A88CFF7F4603FD
(1693519322.399856) can0 0DFD0664#FF137200000000FF
(1693519322.400799) can0 0DF20D02#0001000000000000
(1693519322.411646) can0 0DF11264#57A58CFF7F4603FD
(1693519322.420653) can0 09FD0206#00AE00E9ADFAFFFF
(1693519322.445532) can0 0DF11305#0084FDFDFFFF7FFD
(1693519322.446558) can0 09F11205#00A38CFF7FFF7FFD
(1693519322.447482) can0 0DF11905#00FF7FF6FFCF01FF
(1693519322.448432) can0 0DF11405#00C08FFFFFFF02FF
(1693519322.449479) can0 08FF4605#F1009901D72602FF
(1693519322.451154) can0 04FF1902#419F640210000000
(1693519322.466410) can0 0DFD0264#FFAE00E9ADFAFFFF
(1693519322.476986) can0 09F10D03#FF07FF7FE4FEFFFF
(1693519322.477894) can0 09F10D00#FF07FF7FFEFFFFFF
(1693519322.478886) can0 0DF11264#57A38CFF7F4603FD
(1693519322.479820) can0 0DF11964#570000F6FFCF01FF
(1693519322.480702) can0 09F8012B#80AEFF20D08A7707
(1693519322.495720) can0 0DF11305#00DAE5FDFF2602FF
(1693519322.496758) can0 09F11205#00A18CFF7FFF7FFD
(1693519322.520646) can0 09FD0206#00AE0015B4FAFFFF
(1693519322.525090) can0 0DF21464#015805FF7FFFFFFF
(1693519322.526134) can0 0DF21464#004B056101FFFFFF
(1693519322.527074) can0 18FF3D02#419FFFFF02FFFFFF
(1693519322.528119) can0 0DF21264#400BFF000046FFC4
(1693519322.529163) can0 0DF21264#41FFFFFFFFFFFFFF
(1693519322.533261) can0 0DF80164#80AEFF20D08A7707
(1693519322.545726) can0 0DF11305#00FFF0FDFFFF7FFD
(1693519322.546661) can0 09F11205#009F8CFF7FFF7FFD
(1693519322.547626) can0 0DF11905#00FF7F0C00A501FF
(1693519322.548771) can0 0DF11405#00308FFFFFFF7FFD
(1693519322.549761) can0 0DF80564#402BFF904CA09347
(1693519322.550889) can0 0DF80564#412F0000B13810E1
(1693519322.551992) can0 0DF80564#42AE071020A8C4CB
(1693519322.553062) can0 08FF4605#AD0216019B2602FF
(1693519322.554147) can0 0DF80564#4310BD01FFFFFFFF
(1693519322.555077) can0 0DF80564#44FFFFFF7F23FC10
(1693519322.555998) can0 0DF80564#454000FF7FFFFFFF
(1693519322.556942) can0 0DF80564#46FF01FFFFFFFFFF
(1693519322.557837) can0 0DF11264#57A18CFF7F4603FD
(1693519322.558743) can0 0DFD0264#FFAE0015B4FAFFFF
(1693519322.560480) can0 0DF11264#579F8CFF7F4603FD
(1693519322.573377) can0 0DF11964#5700000C00A501FF
(1693519322.577233) can0 09F10502#A015300C1FA3FEDA
(1693519322.578172) can0 09F10502#A18FFFFF1713A30D
(1693519322.579155) can0 09F10502#A2FF7F4607FF7FFF
(1693519322.580125) can0 09F10502#A3FFFFFFFFFFFFFF
(1693519322.581089) can0 09F10D03#FF07FF7F04FFFFFF
(1693519322.582115) can0 09F10D00#FF07FF7FFEFFFFFF
(1693519322.583152) can0 09F10D02#FF00A3FEFF7FFFFF
(1693519322.595865) can0 0DF11305#00AD42FDFF2602FF
(1693519322.596868) can0 09F11205#009D8CFF7FFF7FFD
(1693519322.601442) can0 0DF20D02#0001000000000000
(1693519322.620933) can0 09FD0206#00AE00CBBBFAFFFF
(1693519322.633763) can0 0DF11264#579D8CFF7F4603FD
(1693519322.645774) can0 0DF11305#00A23AFDFFFF7FFD
(1693519322.646753) can0 09F11205#009B8CFF7FFF7FFD
(1693519322.647766) can0 0DF11905#00FF7F23007E01FF
(1693519322.648793) can0 0DF11405#009F8EFFFFFF7FFD
(1693519322.649967) can0 0DFD0264#FFAE00CBBBFAFFFF
(1693519322.650921) can0 08FF4605#AEFFA600762802FF
(1693519322.661221) can0 0DF11264#579B8CFF7F4603FD
(1693519322.672761) can0 0DF11964#57000023007E01FF
(1693519322.676748) can0 09F10D03#FF07FF7FF2FEFFFF
(1693519322.677995) can0 09F10D00#FF07FF7FFEFFFFFF
(1693519322.680299) can0 09F8012B#80AEFF20D08A7707
(1693519322.695566) can0 0DF11305#007915FDFF2802FF
(1693519322.696475) can0 09F11205#00988CFF7FFF7FFD
(1693519322.699865) can0 18EAFE02#00EE00
(1693519322.720605) can0 09FD0206#00AE00B4C3FAFFFF
(1693519322.726151) can0 18FF3D02#419FFFFF02FFFFFF
(1693519322.727202) can0 1DFF2C02#4017419F00000000
(1693519322.728125) can0 1DFF2C02#4100FFFFFF7FFFFF
(1693519322.729013) can0 1DFF2C02#42FFFFFFFFFF7F2E
(1693519322.729895) can0 1DFF2C02#43322C30FFFFFFFF
(1693519322.737450) can0 0DF80164#80AEFF20D08A7707
(1693519322.745695) can0 0DF11305#009491FCFFFF7FFD
(1693519322.746571) can0 09F11205#00968CFF7FFF7FFD
(1693519322.747477) can0 0DF11905#00FF7F37004801FF
(1693519322.748399) can0 0DF11405#000E8EFFFFFF7FFD
(1693519322.749293) can0 0DF11264#57988CFF7F4603FD
(1693519322.750217) can0 0DFD0264#FFAE00B4C3FAFFFF
(1693519322.751136) can0 08FF4605#FCFE7A019E2802FF
(1693519322.761867) can0 0DF11264#57968CFF7F4603FD
(1693519322.774749) can0 0DF11964#57000037004801FF
(1693519322.776048) can0 09F10502#C015300C1F51FFDA
(1693519322.776900) can0 09F10502#C18FFFFF1713A30D
(1693519322.777771) can0 09F10502#C2FF7F4607FF7FFF
(1693519322.778649) can0 09F10502#C3FFFFFFFFFFFFFF
(1693519322.779539) can0 09F10D03#FF07FF7FEEFEFFFF
(1693519322.780471) can0 09F10D00#FF07FF7FFEFFFFFF
(1693519322.781399) can0 09F10D02#FF0051FFFF7FFFFF
(1693519322.796026) can0 0DF11305#007D9DFCFF2802FF
(1693519322.797012) can0 09F11205#00948CFF7FFF7FFD
(1693519322.801814) can0 0DF20D02#0001000000000000
(1693519322.821533) can0 09FD0206#00AE006FCAFAFFFF
(1693519322.828167) can0 1DFF0502#C09F1399000D0A33
(1693519322.829361) can0 1DFF0502#C13039342E302C35
(1693519322.830365) can0 1DFF0502#C22C312E352C302E
(1693519322.831358) can0 1DFF0502#C3342C302E302C2D
(1693519322.832307) can0 1DFF0502#C4312E382C302E30
(1693519322.833229) can0 1DFF0502#C5302C3231312E30
(1693519322.834149) can0 1DFF0502#C62C302E30302C32
(1693519322.835079) can0 1DFF0502#C731302E382C2D30
(1693519322.836006) can0 1DFF0502#C82E34302C2D302E
(1693519322.836909) can0 1DFF0502#C932332C2D312E36
(1693519322.837820) can0 1DFF0502#CA2C2D312E352C30
(1693519322.838736) can0 1DFF0502#CB2C332E39392C31
(1693519322.839660) can0 1DFF0502#CC2E352C302E3638
(1693519322.840590) can0 1DFF0502#CD2C312E35302C33
(1693519322.841540) can0 1DFF0502#CE322E38302C3130
(1693519322.842505) can0 1DFF0502#CF2E30302C332E33
(1693519322.843422) can0 1DFF0502#D0332C342E36322C
(1693519322.844334) can0 1DFF0502#D13232342E34362C
(1693519322.845257) can0 0DF01064#FFFF904CA093472F
(1693519322.846151) can0 1DFF0502#D2312E39362C2D31
(1693519322.847061) can0 1DFF0502#D32E382C3230342E
(1693519322.847989) can0 1DFF0502#D431302C302E302C
(1693519322.848895) can0 1DFF0502#D5332E352C32302E
(1693519322.849818) can0 1DFF0502#D6302C302E302CFF
(1693519322.850745) can0 0DF11305#006685FDFFFF7FFD
(1693519322.851697) can0 09F11205#00908CFF7FFF7FFD
(1693519322.852678) can0 0DF11905#00FF7FEFFF2E01FF
(1693519322.853677) can0 0DF11405#007E8DFFFFFF7FFD
(1693519322.854647) can0 08FF4605#DB0047010E2702FF
(1693519322.855662) can0 15FD0723#FFC01372FF7FFFFF
(1693519322.863212) can0 0DF50B23#FFDC0800007DFCFF
(1693519322.869938) can0 09F50323#FF3500FFFF00FFFF
(1693519322.880021) can0 09F8012B#80AEFF20D08A7707
(1693519322.880998) can0 0DF11264#57948CFF7F4603FD
(1693519322.881961) can0 0DFD0264#FFAE006FCAFAFFFF
(1693519322.892710) can0 0DF11264#57908CFF7F4603FD
(1693519322.893490) can0 0DF11964#570000EFFF2E01FF
(1693519322.894246) can0 0DFD0664#FF137200000000FF
(1693519322.895004) can0 0DF50B64#FFDC0800007DFCFF
(1693519322.895742) can0 0DF11305#00B61BFEFF2702FF
(1693519322.896523) can0 09F11205#008E8CFF7FFF7FFD
(1693519322.897611) can0 0DF50364#FF3500FFFFFFFFFF
(1693519322.901599) can0 04FF1902#419F640A10000000
(1693519322.905417) can0 0DF80164#80AEFF20D08A7707
(1693519322.909279) can0 0DF11264#578E8CFF7F4603FD
(1693519322.920944) can0 09FD0206#00AE0045CEFAFFFF
(1693519322.929197) can0 18FF3D02#419FFFFF02FFFFFF
(1693519322.930068) can0 09F10D03#FF07FF7FEBFEFFFF
(1693519322.930930) can0 09F10D00#FF07FF7FFDFFFFFF
(1693519322.934132) can0 0DFD0264#FFAE0045CEFAFFFF
(1693519322.945582) can0 0DF11305#00396AFFFFFF7FFD
(1693519322.946422) can0 09F11205#008C8CFF7FFF7FFD
(1693519322.947339) can0 0DF11905#00FF7F96FF4001FF
(1693519322.948206) can0 0DF11405#00EE8CFFFFFF7FFD
(1693519322.949059) can0 08FF4605#8CFFD3007C2702FF
(1693519322.969360) can0 19F51323#800EFFFFFFFFFFFF
(1693519322.972602) can0 19F51323#81F98D3600F98D36
(1693519322.975950) can0 19F51323#8200FFFFFFFFFFFF
(1693519322.977064) can0 09F10502#E015300C1F51FFDA
(1693519322.978017) can0 09F10502#E18FFFFF1713A30D
(1693519322.978969) can0 09F10502#E2FF7F4607FF7FFF
(1693519322.979849) can0 09F10502#E3FFFFFFFFFFFFFF
(1693519322.980730) can0 09F10D02#FF0051FFFF7FFFFF
(1693519322.990321) can0 0DF11264#578C8CFF7F4603FD
(1693519322.995517) can0 0DF11305#009C4600002702FF
(1693519322.996375) can0 09F11205#008B8CFF7FFF7FFD
(1693519322.997282) can0 0DF11964#57000096FF4001FF
(1693519323.001008) can0 0DF20D02#0001000000000000
(1693519323.010013) can0 0DF11264#578B8CFF7F4603FD
(1693519323.021324) can0 09FD0206#00AE00D6CEFAFFFF
(1693519323.036340) can0 0DF21464#015805FF7FFFFFFF
(1693519323.037253) can0 0DF21464#004A055901FFFFFF
(1693519323.038065) can0 0DF21264#400BFF000046FFC4
(1693519323.038890) can0 0DF21264#41FFFFFFFFFFFFFF
(1693519323.044902) can0 0DF11305#006EDB0100FF7FFD
(1693519323.046058) can0 09F11205#008B8CFF7FFF7FFD
(1693519323.046959) can0 0DF11905#00FF7F62FF7701FF
(1693519323.047851) can0 0DF11405#005D8CFFFFFF7FFD
(1693519323.048712) can0 08FF4605#9DFF1303022602FF
(1693519323.065026) can0 0DFD0264#FFAE00D6CEFAFFFF
(1693519323.077436) can0 09F10D03#FF07FF7FEEFEFFFF
(1693519323.078595) can0 09F10D00#FF07FF7FFDFFFFFF
(1693519323.079475) can0 0DF11264#578B8CFF7F4603FD
(1693519323.080284) can0 0DF11964#57000062FF7701FF
(1693519323.081062) can0 09F8012B#80AEFF20D08A7707
(1693519323.095857) can0 0DF11305#00CF7804002602FF
(1693519323.096801) can0 09F11205#008C8CFF7FFF7FFD
(1693519323.116178) can0 09F8012B#C0ADFF20488A7707
(1693519323.117108) can0 09F8022B#FFFCBF860001FFFF
(1693519323.117955) can0 0DF8052B#202FFF594C00DD9E
(1693519323.118912) can0 0DF8052B#211600000000E0E0
(1693519323.119857) can0 0DF8052B#22AE0700000000AC
(1693519323.120705) can0 0DF8052B#2310BD01FFFFFFFF
(1693519323.121625) can0 0DF8052B#24FFFFFF7F10FCFF
(1693519323.122572) can0 0DF8052B#25FF7FFF7F000000
(1693519323.123523) can0 0CFF1901#419F640B00000000
(1693519323.124400) can0 09FD0206#00AE0083CCFAFFFF
(1693519323.125276) can0 0CFF1901#419F640300000000
(1693519323.126171) can0 0DF8052B#260000FFFF0100FF
(1693519323.127001) can0 0DF0102B#FFF1594C00DD9E16
(1693519323.132856) can0 0DF11264#578C8CFF7F4603FD
(1693519323.145595) can0 0DF11305#00548E0500FF7FFD
(1693519323.146415) can0 09F11205#00908CFF7FFF7FFD
(1693519323.147455) can0 0DF11905#00FF7F4EFFA701FF
(1693519323.148310) can0 0DF11405#00CD8BFFFFFF7FFD
(1693519323.149147) can0 0DF80264#FFFCBF860001FFFF
(1693519323.149970) can0 0DFD0264#FFAE0083CCFAFFFF
(1693519323.150771) can0 0DF80164#B1ADFF20488A7707
(1693519323.151570) can0 08FF4605#6F005F02E92702FF
(1693519323.158515) can0 0DF11264#57908CFF7F4603FD
(1693519323.170495) can0 0DF11964#5700004EFFA701FF
(1693519323.175645) can0 18FF3D02#419FFFFF02FFFFFF
(1693519323.194896) can0 0DF11305#007AD906002702FF
(1693519323.196020) can0 09F11205#00948CFF7FFF7FFD
(1693519323.201302) can0 18EAFE02#00EE00
(1693519323.202149) can0 0DF20D02#0001000000000000
(1693519323.220788) can0 09FD0206#00AE00CDC7FAFFFF
(1693519323.225163) can0 09F10502#0015300C1F51FFDA
(1693519323.226300) can0 09F10502#018FFFFF1713A30D
(1693519323.227092) can0 09F10502#02FF7F4607FF7FFF
(1693519323.227874) can0 09F10502#03FFFFFFFFFFFFFF
(1693519323.228665) can0 09F10D03#FF07FF7FE0FEFFFF
(1693519323.229500) can0 09F10D00#FF07FF7FFDFFFFFF
(1693519323.230330) can0 09F10D02#FF0051FFFF7FFFFF
(1693519323.235618) can0 0DF11264#57948CFF7F4603FD
(1693519323.245685) can0 0DF11305#00688C0800FF7FFD
(1693519323.246488) can0 09F11205#009B8CFF7FFF7FFD
(1693519323.247297) can0 0DF11905#00FF7F54FFC101FF
(1693519323.248107) can0 0DF11405#003C8BFFFFFF7FFD
(1693519323.248925) can0 0DFD0264#FFAE00CDC7FAFFFF
(1693519323.249737) can0 08FF4605#25003A017F2702FF
(1693519323.258483) can0 0DF11264#579B8CFF7F4603FD
(1693519323.268757) can0 0DF11964#57000054FFC101FF
(1693519323.280040) can0 09F8012B#C0ADFF20488A7707
(1693519323.293694) can0 0DF80164#C0ADFF20488A7707
(1693519323.295098) can0 0DF11305#0090DC08002702FF
(1693519323.296251) can0 09F11205#00A48CFF7FFF7FFD
(1693519323.320920) can0 09FD0206#00AE005AC1FAFFFF
(1693519323.326359) can0 09F10D03#FF07FF7F0FFFFFFF
(1693519323.327488) can0 09F10D00#FF07FF7FFDFFFFFF
(1693519323.328322) can0 1DFF0502#E09E1399000D0A33
(1693519323.329211) can0 1DFF0502#E13039352E302C35
(1693519323.330066) can0 1DFF0502#E22C312E352C302E
(1693519323.330880) can0 1DFF0502#E3312C302E302C2D
(1693519323.331687) can0 1DFF0502#E4312E382C302E30
(1693519323.332473) can0 1DFF0502#E5302C3231312E30
(1693519323.333227) can0 1DFF0502#E62C302E30302C32
(1693519323.333966) can0 1DFF0502#E731302E392C312E
(1693519323.334720) can0 1DFF0502#E830342C2D302E30
(1693519323.335462) can0 1DFF0502#E9362C2D312E342C
(1693519323.336201) can0 1DFF0502#EA2D312E362C302C
(1693519323.336936) can0 1DFF0502#EB332E39392C312E
(1693519323.337675) can0 1DFF0502#EC352C302E36382C
(1693519323.338415) can0 1DFF0502#ED312E35302C3332
(1693519323.339193) can0 1DFF0502#EE2E38302C31302E
(1693519323.339944) can0 1DFF0502#EF30302C332E3333
(1693519323.340689) can0 1DFF0502#F02C342E36322C32
(1693519323.341431) can0 1DFF0502#F132352E31372C31
(1693519323.342173) can0 1DFF0502#F22E38322C2D312E
(1693519323.342916) can0 1DFF0502#F3382C3230342E31
(1693519323.343662) can0 1DFF0502#F4302C302E302C33
(1693519323.344402) can0 1DFF0502#F52E332C32302E30
(1693519323.345158) can0 1DFF0502#F62C302E302CFFFF
(1693519323.345911) can0 0DF11305#0079E70900FF7FFD
(1693519323.346685) can0 09F11205#00AD8CFF7FFF7FFD
(1693519323.347484) can0 0DF11905#00FF7F72FFD201FF
(1693519323.348312) can0 0DF11405#00AB8AFFFFFF7FFD
(1693519323.349196) can0 08FF4605#5F00E5018E2602FF
(1693519323.350066) can0 15FD0723#FFC01372FF7FFFFF
(1693519323.355770) can0 0DFD0264#FFAE005AC1FAFFFF
(1693519323.373095) can0 18FF3D02#419FFFFF02FFFFFF
(1693519323.374701) can0 0DF11264#57AD8CFF7F4603FD
(1693519323.375458) can0 0DF11964#57000072FFD201FF
(1693519323.376213) can0 0DFD0664#FF137200000000FF
(1693519323.395491) can0 0DF11305#00692D0A002602FF
(1693519323.396291) can0 09F11205#00B78CFF7FFF7FFD
(1693519323.399953) can0 0DF90364#FF3000000000FFFF
(1693519323.400770) can0 0DF90464#40228828480D0040
(1693519323.401600) can0 0DF20D02#0001000000000000
(1693519323.402398) can0 0DF90464#416011A318594C26
(1693519323.403311) can0 0DF90464#428B158BFFFFFFFF
(1693519323.404117) can0 0DF90464#431B00000033C3F4
(1693519323.404975) can0 0DF90464#44207B066F070101
(1693519323.421477) can0 09FD0206#00AE00F2B9FAFFFF
(1693519323.445289) can0 0DF11305#00F1590A00FF7FFD
(1693519323.446433) can0 09F11205#00C28CFF7FFF7FFD
(1693519323.447376) can0 0DF11905#00FF7F9BFFDC01FF
(1693519323.448243) can0 0DF11405#001B8AFFFFFF7FFD
(1693519323.449085) can0 08FF4605#DD009500C52902FF
(1693519323.451938) can0 04FF1902#419F640210000000
(1693519323.456035) can0 0DFD0264#FFAE00F2B9FAFFFF
(1693519323.475454) can0 09F10502#2015300C1FA3FEDA
(1693519323.476561) can0 09F10502#218FFFFF1713A30D
(1693519323.477346) can0 09F10502#22FF7F4607FF7FFF
(1693519323.478114) can0 0DF11264#57C28CFF7F4603FD
(1693519323.478877) can0 0DF11964#5700009BFFDC01FF
(1693519323.479677) can0 09F10502#23FFFFFFFFFFFFFF
(1693519323.480485) can0 09F10D03#FF07FF7FE4FEFFFF
(1693519323.481353) can0 09F10D00#FF07FF7FFDFFFFFF
(1693519323.482213) can0 09F10D02#FF00A3FEFF7FFFFF
(1693519323.483031) can0 09F8012B#C0ADFF20488A7707
(1693519323.494216) can0 15FD0C23#FF0000C27404FFFF
(1693519323.495341) can0 0DF11305#0090F009002902FF
(1693519323.496453) can0 09F11205#00CD8CFF7FFF7FFD
(1693519323.497622) can0 09FD0206#00AE003CB2FAFFFF
(1693519323.533010) can0 0DF21464#015805FF7FFFFFFF
(1693519323.534074) can0 0DF21464#004A055901FFFFFF
(1693519323.535205) can0 0DF21264#400BFF000046FFC4
(1693519323.536296) can0 0DF21264#41FFFFFFFFFFFFFF
(1693519323.537062) can0 0DF80164#C0ADFF20488A7707
(1693519323.538355) can0 0DF80564#402BFF904CB0BA47
(1693519323.539123) can0 0DF80564#412F40809984E3E0
(1693519323.539910) can0 0DF80564#42AE0700D06C1AAC
(1693519323.540686) can0 0DF80564#4310BD01FFFFFFFF
(1693519323.541440) can0 0DF80564#44FFFFFF7F23FC10
(1693519323.542196) can0 0DF80564#454000FF7FFFFFFF
(1693519323.542956) can0 0DF80564#46FF01FFFFFFFFFF
(1693519323.543691) can0 0DF11264#57CD8CFF7F4603FD
(1693519323.544435) can0 0DFD0264#FFAE003CB2FAFFFF
(1693519323.545178) can0 0DF11305#0058EA0900FF7FFD
(1693519323.546201) can0 09F11205#00D78CFF7FFF7FFD
(1693519323.547074) can0 0DF11905#00FF7FD3FFC601FF
(1693519323.547932) can0 0DF11405#008B89FFFFFF7FFD
(1693519323.548754) can0 08FF4605#6902A801912802FF
(1693519323.595381) can0 0DF11305#00A60609002802FF
(1693519323.596210) can0 09F11205#00E28CFF7FFF7FFD
(1693519323.600861) can0 0DF20D02#0001000000000000
(1693519323.601984) can0 0DF11964#570000D3FFC601FF
(1693519323.609160) can0 0DF11264#57E28CFF7F4603FD
(1693519323.621258) can0 09FD0206#00AE0082ABFAFFFF
(1693519323.626727) can0 18FF3D02#419FFFFF02FFFFFF
(1693519323.627565) can0 09F10D03#FF07FF7FFDFEFFFF
(1693519323.628377) can0 09F10D00#FF07FF7FFDFFFFFF
(1693519323.634462) can0 0DFD0264#FFAE0082ABFAFFFF
(1693519323.644949) can0 0DF11305#001A7D0700FF7FFD
(1693519323.646101) can0 09F11205#00ED8CFF7FFF7FFD
(1693519323.646942) can0 0DF11905#00FF7F0000B601FF
(1693519323.647778) can0 0DF11405#00FB88FFFFFF7FFD
(1693519323.648603) can0 08FF4605#B5FF7F01A72602FF
(1693519323.680460) can0 09F8012B#C0ADFF20488A7707
(1693519323.689757) can0 0DF11264#57ED8CFF7F4603FD
(1693519323.695505) can0 0DF11305#00CA6006002602FF
(1693519323.696321) can0 09F11205#00F78CFF7FFF7FFD
(1693519323.697222) can0 0DF11964#5700000000B601FF
(1693519323.698039) can0 0DF80164#C0ADFF20488A7707
(1693519323.700805) can0 18EAFE02#00EE00
(1693519323.708732) can0 0DF11264#57F78CFF7F4603FD
(1693519323.721320) can0 09FD0206#00AE0000A7FAFFFF
(1693519323.724620) can0 09F10502#4015300C5FA3FEDA
(1693519323.725766) can0 09F10502#418FFFFF1713A30D
(1693519323.726574) can0 09F10502#42FF7F4607FF7FFF
(1693519323.727376) can0 09F10502#43FFFFFFFFFFFFFF
(1693519323.728168) can0 09F10D03#FF07FF7FD2FEFFFF
(1693519323.728996) can0 09F10D00#FF07FF7FFDFFFFFF
(1693519323.729816) can0 09F10D02#FF02A3FEFF7FFFFF
(1693519323.730651) can0 1DFF2C02#6017419F00000000
(1693519323.731472) can0 1DFF2C02#6100FFFFFF7FFFFF
(1693519323.732293) can0 1DFF2C02#62FFFFFFFFFF7FFF
(1693519323.733109) can0 1DFF2C02#631B0000FFFFFFFF
(1693519323.745301) can0 0DF11905#00FF7F1A009F01FF
(1693519323.746432) can0 0DF11405#007688FFFFFF02FF
(1693519323.747262) can0 08FF4605#17013F02C82402FF
(1693519323.748069) can0 0DF11305#0059530500FF7FFD
(1693519323.748868) can0 09F11205#00FF8CFF7FFF7FFD
(1693519323.766974) can0 0DFD0264#FFAE0000A7FAFFFF
(1693519323.795666) can0 0DF11305#00D5DB0300FF7FFD
(1693519323.796498) can0 09F11205#00078DFF7FFF7FFD
(1693519323.797361) can0 09FD0206#00AE00FBA5FAFFFF
(1693519323.798204) can0 0DF11964#5700001A009F01FF
(1693519323.799027) can0 0DF11264#57FF8CFF7F4603FD
(1693519323.802282) can0 0DF20D02#0001000000000000
(1693519323.808946) can0 0DF11264#57078DFF7F4603FD
(1693519323.819956) can0 0DFD0264#FFAE00FBA5FAFFFF
(1693519323.827182) can0 18FF3D02#419FFFFF02FFFFFF
(1693519323.827960) can0 09F10D03#FF07FF7F9FFEFFFF
(1693519323.828758) can0 09F10D00#FF07FF7FFDFFFFFF
(1693519323.829567) can0 1DFF0502#009E1399000D0A33
(1693519323.830374) can0 1DFF0502#013039362E302C35
(1693519323.831209) can0 1DFF0502#022C312E352C2D30
(1693519323.832012) can0 1DFF0502#032E362C302E302C
(1693519323.832878) can0 1DFF0502#042D312E382C302E
(1693519323.833686) can0 1DFF0502#0530302C3231312E
(1693519323.834477) can0 1DFF0502#06302C302E30302C
(1693519323.835248) can0 1DFF0502#073231312E352C30
(1693519323.836009) can0 1DFF0502#082E34352C302E32
(1693519323.836757) can0 1DFF0502#09332C2D322E302C
(1693519323.837500) can0 1DFF0502#0A2D322E332C302C
(1693519323.838240) can0 1DFF0502#0B332E39392C312E
(1693519323.838994) can0 1DFF0502#0C352C302E36382C
(1693519323.839741) can0 1DFF0502#0D312E35302C3332
(1693519323.840501) can0 1DFF0502#0E2E38302C31302E
(1693519323.841247) can0 1DFF0502#0F30302C332E3333
(1693519323.841982) can0 1DFF0502#102C342E36322C32
(1693519323.842726) can0 1DFF0502#1132342E35392C32
(1693519323.843468) can0 1DFF0502#122E37372C2D312E
(1693519323.844216) can0 0DF01064#FFFF904CB0BA472F
(1693519323.844953) can0 1DFF0502#13382C3230342E31
(1693519323.845699) can0 1DFF0502#14302C302E302C33
(1693519323.846446) can0 1DFF0502#152E322C32302E30
(1693519323.847202) can0 1DFF0502#162C302E302CFFFF
(1693519323.847950) can0 0DF11305#0095110300FF7FFD
(1693519323.848738) can0 09F11205#000E8DFF7FFF7FFD
(1693519323.849557) can0 0DF11905#00FF7F28009701FF
(1693519323.850406) can0 0DF11405#00E287FFFFFF02FF
(1693519323.851244) can0 08FF4605#7EFF3B023B2502FF
(1693519323.852075) can0 15FD0723#FFC01472FF7FFFFF
(1693519323.862229) can0 0DF50B23#FFDC0800007DFCFF
(1693519323.869802) can0 09F50323#FF3200FFFF00FFFF
(1693519323.880513) can0 09F8012B#C0ADFF20488A7707
(1693519323.894667) can0 0DF11264#570E8DFF7F4603FD
(1693519323.895627) can0 0DF11305#00327B01002502FF
(1693519323.896419) can0 09F11205#00148DFF7FFF7FFD
(1693519323.897326) can0 0DF11964#57000028009701FF
(1693519323.898171) can0 0DFD0664#FF147200000000FF
(1693519323.898994) can0 0DF50B64#FFDC0800007DFCFF
(1693519323.899815) can0 0DF50364#FF3200FFFFFFFFFF
(1693519323.900601) can0 0DF80164#C0ADFF20488A7707
(1693519323.909618) can0 0DF11264#57148DFF7F4603FD
(1693519323.920357) can0 09FD0206#00AE0077A8FAFFFF
(1693519323.925796) can0 09F10502#6015300C1FA3FEDA
(1693519323.926896) can0 09F10502#618FFFFF1713A30D
(1693519323.927679) can0 09F10502#62FF7F4607FF7FFF
(1693519323.928468) can0 09F10502#63FFFFFFFFFFFFFF
(1693519323.929250) can0 09F10D02#FF00A3FEFF7FFFFF
(1693519323.934002) can0 0DFD0264#FFAE0077A8FAFFFF
(1693519323.945131) can0 0DF11905#00FF7F0F008D01FF
(1693519323.946276) can0 0DF11405#005C87FFFFFF02FF
(1693519323.947117) can0 08FF4605#1100A2019A2702FF
(1693519323.947937) can0 0DF11305#005A800000FF7FFD
(1693519323.948733) can0 09F11205#00188DFF7FFF7FFD
(1693519323.951846) can0 04FF1902#419F640A10000000
(1693519323.970045) can0 19F51323#A00EFFFFFFFFFFFF
(1693519323.972183) can0 19F51323#A1F98D3600F98D36
(1693519323.975421) can0 19F51323#A200FFFFFFFFFFFF
(1693519323.976572) can0 09F10D03#FF07FF7F49FEFFFF
(1693519323.977408) can0 09F10D00#FF07FF7FFDFFFFFF
(1693519323.995889) can0 0DF11305#00B12EFFFFFF7FFD
(1693519323.996776) can0 09F11205#001A8DFF7FFF7FFD
(1693519324.001383) can0 0DF20D02#0001000000000000
(1693519324.003885) can0 0DF11964#5700000F008D01FF
(1693519324.004683) can0 0DF11264#57188DFF7F4603FD
(1693519324.020703) can0 09FD0206#00AE00E7ADFAFFFF
(1693519324.022172) can0 0DF11264#571A8DFF7F4603FD
(1693519324.029349) can0 0DF21464#015805FF7FFFFFFF
(1693519324.030414) can0 11F80F2B#E01A12C82BD40F50
(1693519324.031419) can0 11F80F2B#E1297D07C0B10321
(1693519324.032169) can0 11F80F2B#E2676B896801D308
(1693519324.032928) can0 11F80F2B#E300FFFF0070FEFF
(1693519324.034206) can0 0DFD0264#FFAE00E7ADFAFFFF
(1693519324.034980) can0 0DF21464#004B056101FFFFFF
(1693519324.035954) can0 0DF21264#400BFF000046FFC4
(1693519324.037050) can0 0DF21264#41FFFFFFFFFFFFFF
(1693519324.047363) can0 0DF11305#001D8CFEFFFF7FFD
(1693519324.048198) can0 09F11205#001A8DFF7FFF7FFD
(1693519324.049066) can0 0DF11905#00FF7FF8FF8901FF
(1693519324.049966) can0 0DF11405#00C686FFFFFF02FF
(1693519324.050868) can0 08FF4605#21FF7503DF2502FF
(1693519324.075902) can0 18FF3D02#419FFFFF02FFFFFF
(1693519324.080166) can0 09F8012B#C0ADFF20488A7707
(1693519324.091162) can0 0DF11264#571A8DFF7F4603FD
(1693519324.095212) can0 0DF11305#002B76FDFF2502FF
(1693519324.096352) can0 09F11205#001A8DFF7FFF7FFD
(1693519324.097208) can0 0DF11964#570000F8FF8901FF
(1693519324.098042) can0 0DF80164#C0ADFF20488A7707
(1693519324.109244) can0 0DF11264#571A8DFF7F4603FD
(1693519324.115595) can0 09F8012B#C0ACFF20D8897707
(1693519324.116767) can0 09F8022B#FFFCB186F400FFFF
(1693519324.117612) can0 0DF8052B#402FFF594C00049F
(1693519324.118539) can0 0DF8052B#411600000000A8E0
(1693519324.119433) can0 0DF8052B#42AE070000000092
(1693519324.120261) can0 0DF8052B#4310BD01FFFFFFFF
(1693519324.121073) can0 0DF8052B#44FFFFFF7F10FCFF
(1693519324.121885) can0 0DF8052B#45FF7FFF7F000000
(1693519324.122701) can0 0CFF1901#419F640B00000000
(1693519324.123509) can0 09FD0206#00AE001DB5FAFFFF
(1693519324.124327) can0 0CFF1901#419F640300000000
(1693519324.125150) can0 0DF8052B#460000FFFF0100FF
(1693519324.126007) can0 0DF0102B#FFF1594C00049F16
(1693519324.126830) can0 09F10502#8015300C1FA3FEDA
(1693519324.127653) can0 09F10502#818FFFFF1713A30D
(1693519324.128484) can0 09F10502#82FF7F4607FF7FFF
(1693519324.129346) can0 09F10502#83FFFFFFFFFFFFFF
(1693519324.130172) can0 09F10D03#FF07FF7F49FEFFFF
(1693519324.131010) can0 09F10D00#FF07FF7FFDFFFFFF
(1693519324.131880) can0 0DF80164#C0ACFF20D8897707
(1693519324.132707) can0 09F10D02#FF00A3FEFF7FFFFF
(1693519324.142382) can0 0DF80264#FFFCB186F400FFFF
(1693519324.143180) can0 0DFD0264#FFAE001DB5FAFFFF
(1693519324.143925) can0 0DF80164#C0ACFF20D8897707
(1693519324.145813) can0 0DF11305#001747FDFFFF7FFD
(1693519324.146589) can0 09F11205#00198DFF7FFF7FFD
(1693519324.147416) can0 0DF11905#00FF7FD3FFAD01FF
(1693519324.148256) can0 0DF11405#003586FFFFFF7FFD
(1693519324.149109) can0 08FF4605#97FE8E01412602FF
(1693519324.195522) can0 0DF11305#0000E3FCFF2602FF
(1693519324.196357) can0 09F11205#00188DFF7FFF7FFD
(1693519324.200825) can0 18EAFE02#00EE00
(1693519324.201770) can0 0DF20D02#0001000000000000
(1693519324.207732) can0 0DF11964#570000D3FFAD01FF
(1693519324.221414) can0 09FD0206#00AE00D9BCFAFFFF
(1693519324.223060) can0 0DF11264#57188DFF7F4603FD
(1693519324.225823) can0 09F10D03#FF07FF7F69FEFFFF
(1693519324.226956) can0 09F10D00#FF07FF7FFDFFFFFF
(1693519324.234834) can0 0DFD0264#FFAE00D9BCFAFFFF
(1693519324.245261) can0 0DF11305#00BA23FCFFFF7FFD
(1693519324.246410) can0 09F11205#00168DFF7FFF7FFD
(1693519324.247269) can0 0DF11905#00FF7FB4FFD601FF
(1693519324.248173) can0 0DF11405#00A585FFFFFF7FFD
(1693519324.249021) can0 08FF4605#96FF3B01822602FF
(1693519324.275528) can0 18FF3D02#419FFFFF02FFFFFF
(1693519324.279803) can0 09F8012B#C0ACFF20D8897707
(1693519324.290043) can0 0DF11264#57168DFF7F4603FD
(1693519324.294823) can0 0DF11305#00E44EFBFF2602FF
(1693519324.295958) can0 09F11205#00128DFF7FFF7FFD
(1693519324.296774) can0 0DF11964#570000B4FFD601FF
(1693519324.297599) can0 0DF80164#C0ACFF20D8897707
(1693519324.310221) can0 0DF11264#57128DFF7F4603FD
(1693519324.320647) can0 09FD0206#00AE00D0C2FAFFFF
(1693519324.328260) can0 09F10502#A015300C1FA3FEDA
(1693519324.329113) can0 09F10502#A18FFFFF1713A30D
(1693519324.329951) can0 09F10502#A2FF7F4607FF7FFF
(1693519324.330758) can0 09F10502#A3FFFFFFFFFFFFFF
(1693519324.331564) can0 09F10D03#FF07FF7F62FEFFFF
(1693519324.332444) can0 09F10D00#FF07FF7FFDFFFFFF
(1693519324.333305) can0 09F10D02#FF00A3FEFF7FFFFF
(1693519324.334185) can0 1DFF0502#209F1399000D0A33
(1693519324.335117) can0 1DFF0502#213039372E302C35
(1693519324.335934) can0 1DFF0502#222C312E352C2D30
(1693519324.336788) can0 0DFD0264#FFAE00D0C2FAFFFF
(1693519324.337633) can0 1DFF0502#232E352C302E302C
(1693519324.338606) can0 1DFF0502#242D312E382C302E
(1693519324.339536) can0 1DFF0502#2530302C3231312E
(1693519324.340714) can0 1DFF0502#26302C302E30302C
(1693519324.341558) can0 1DFF0502#273231312E352C2D
(1693519324.342407) can0 1DFF0502#28302E35352C302E
(1693519324.343530) can0 1DFF0502#2931322C2D322E34
(1693519324.344487) can0 1DFF0502#2A2C2D322E342C30
(1693519324.345411) can0 1DFF0502#2B2C332E39392C31
(1693519324.346352) can0 1DFF0502#2C2E352C302E3638
(1693519324.347455) can0 1DFF0502#2D2C312E35302C33
(1693519324.348404) can0 1DFF0502#2E322E38302C3130
(1693519324.349184) can0 1DFF0502#2F2E30302C332E33
(1693519324.350091) can0 1DFF0502#30332C342E36322C
(1693519324.350873) can0 1DFF0502#313232342E33322C
(1693519324.351669) can0 1DFF0502#32322E31382C2D31
(1693519324.352456) can0 1DFF0502#332E382C3230342E
(1693519324.353242) can0 1DFF0502#3431302C302E302C
(1693519324.354023) can0 1DFF0502#35332E302C32302E
(1693519324.354810) can0 1DFF0502#36302C302E302CFF
(1693519324.355619) can0 0DF11305#00A4A3FBFFFF7FFD
(1693519324.356455) can0 09F11205#000E8DFF7FFF7FFD
(1693519324.357295) can0 0DF11905#00FF7F9BFFDA01FF
(1693519324.358147) can0 0DF11405#001485FFFFFF7FFD
(1693519324.358991) can0 08FF4605#04005302252502FF
(1693519324.359856) can0 15FD0723#FFC01472FF7FFFFF
(1693519324.390857) can0 0DF11264#570E8DFF7F4603FD
(1693519324.395236) can0 0DF11305#0066BCFBFF2502FF
(1693519324.396368) can0 09F11205#00098DFF7FFF7FFD
(1693519324.397210) can0 0DF11964#5700009BFFDA01FF
(1693519324.398061) can0 0DFD0664#FF147200000000FF
(1693519324.402190) can0 0DF20D02#0001000000000000
(1693519324.408875) can0 0DF11264#57098DFF7F4603FD
(1693519324.420880) can0 09FD0206#00AE0017C5FAFFFF
(1693519324.425241) can0 09F10D03#FF07FF7F74FEFFFF
(1693519324.426402) can0 09F10D00#FF07FF7FFDFFFFFF
(1693519324.445794) can0 0DF11305#001BFAFBFFFF7FFD
(1693519324.446627) can0 09F11205#00058DFF7FFF7FFD
(1693519324.447468) can0 0DF11905#00FF7F79FFE201FF
(1693519324.448398) can0 0DF11405#008484FFFFFF7FFD
(1693519324.449264) can0 08FF4605#81FFFD013E2502FF
(1693519324.451362) can0 04FF1902#419F640210000000
(1693519324.468231) can0 0DFD0264#FFAE0017C5FAFFFF
(1693519324.477001) can0 18FF3D02#419FFFFF02FFFFFF
(1693519324.478456) can0 0DF11264#57058DFF7F4603FD
(1693519324.479222) can0 0DF11964#57000079FFE201FF
(1693519324.480213) can0 09F8012B#C0ACFF20D8897707
(1693519324.492904) can0 0DF80164#C0ACFF20D8897707
(1693519324.495257) can0 0DF11305#006B31FBFF2502FF
(1693519324.496437) can0 09F11205#00008DFF7FFF7FFD
(1693519324.497335) can0 09FD0206#00AE0081C3FAFFFF
(1693519324.524323) can0 0DF21464#015805FF7FFFFFFF
(1693519324.525390) can0 0DFB0704#40131CEAEE001CEA
(1693519324.526162) can0 0DFB0704#41EE003930303037
(1693519324.526938) can0 0DFB0704#4231010000A861FF
(1693519324.527756) can0 0DF21464#004B056101FFFFFF
(1693519324.531890) can0 0DF21264#400BFF000046FFC4
(1693519324.532992) can0 0DF21264#41FFFFFFFFFFFFFF
(1693519324.545848) can0 0DF11305#00954BFBFFFF7FFD
(1693519324.546694) can0 09F11205#00FA8CFF7FFF7FFD
(1693519324.547543) can0 0DF11905#00FF7F7CFFC901FF
(1693519324.548417) can0 0DF11405#00F383FFFFFF7FFD
(1693519324.549330) can0 08FF4605#A7004902062902FF
(1693519324.556317) can0 0DFD0264#FFAE0081C3FAFFFF
(1693519324.577026) can0 09F10502#C015300C1FA3FEDA
(1693519324.577803) can0 09F10502#C18FFFFF1713A30D
(1693519324.578652) can0 09F10502#C2FF7F4607FF7FFF
(1693519324.579433) can0 09F10502#C3FFFFFFFFFFFFFF
(1693519324.580190) can0 0DF11264#57FA8CFF7F4603FD
(1693519324.581002) can0 0DF11964#5700007CFFC901FF
(1693519324.581848) can0 09F10D03#FF07FF7F74FEFFFF
(1693519324.582756) can0 09F10D00#FF07FF7FFDFFFFFF
(1693519324.583683) can0 09F10D02#FF00A3FEFF7FFFFF
(1693519324.595477) can0 0DF11305#005F05FCFF2902FF
(1693519324.596442) can0 09F11205#00F58CFF7FFF7FFD
(1693519324.600972) can0 0DF20D02#0001000000000000
(1693519324.620234) can0 09FD0206#00AE00BFBEFAFFFF
(1693519324.622493) can0 0DF90364#FF3000000000FFFF
(1693519324.624670) can0 0DF90464#40228828480D0040
(1693519324.625777) can0 0DF90464#41F02DC418594C26
(1693519324.626908) can0 0DF90464#428B158BFFFFFFFF
(1693519324.627684) can0 0DF90464#431B00000033C3F4
(1693519324.628431) can0 0DF90464#44207B066F07F200
(1693519324.635157) can0 0DF11264#57F58CFF7F4603FD
(1693519324.645178) can0 0DF11305#00C7A4FCFFFF7FFD
(1693519324.646353) can0 09F11205#00F18CFF7FFF7FFD
(1693519324.647324) can0 0DF11905#00FF7F9CFFA301FF
(1693519324.648201) can0 0DFD0264#FFAE00BFBEFAFFFF
(1693519324.649065) can0 0DF11405#006383FFFFFF7FFD
(1693519324.649901) can0 08FF4605#280188018D2802FF
(1693519324.659613) can0 0DF11264#57F18CFF7F4603FD
(1693519324.672632) can0 0DF11964#5700009CFFA301FF
(1693519324.675332) can0 18FF3D02#419FFFFF02FFFFFF
(1693519324.676460) can0 09F10D03#FF07FF7F5BFEFFFF
(1693519324.677258) can0 09F10D00#FF07FF7FFDFFFFFF
(1693519324.679768) can0 09F8012B#C0ACFF20D8897707
(1693519324.694829) can0 0DF11305#0076FFFCFF2802FF
(1693519324.695970) can0 09F11205#00EF8CFF7FFF7FFD
(1693519324.701238) can0 18EAFE02#00EE00
(1693519324.720672) can0 09FD0206#00AE004FB8FAFFFF
(1693519324.726105) can0 1DFF2C02#8017419F00000000
(1693519324.727230) can0 1DFF2C02#8100FFFFFF7FFFFF
(1693519324.728034) can0 1DFF2C02#82FFFFFFFFFF7FFF
(1693519324.728820) can0 1DFF2C02#831B0000FFFFFFFF
(1693519324.735097) can0 0DF80164#C0ACFF20D8897707
(1693519324.745375) can0 0DF11305#00F167FDFFFF7FFD
(1693519324.746166) can0 09F11205#00EC8CFF7FFF7FFD
(1693519324.747003) can0 0DF11905#00FF7FC7FF7E01FF
(1693519324.747830) can0 0DF11405#00D282FFFFFF7FFD
(1693519324.748653) can0 0DF80564#402BFF904CC0E147
(1693519324.749466) can0 0DF80564#412F0080CFE9A7E0
(1693519324.750258) can0 0DF80564#42AE070070B40692
(1693519324.751068) can0 0DF80564#4310BD01FFFFFFFF
(1693519324.751870) can0 0DF80564#44FFFFFF7F23FC10
(1693519324.752681) can0 0DF80564#454000FF7FFFFFFF
(1693519324.753487) can0 0DF80564#46FF01FFFFFFFFFF
(1693519324.754264) can0 0DF11264#57EF8CFF7F4603FD
(1693519324.755056) can0 0DFD0264#FFAE004FB8FAFFFF
(1693519324.755829) can0 08FF4605#BEFE9A02B12602FF
(1693519324.758899) can0 0DF11264#57EC8CFF7F4603FD
(1693519324.769779) can0 0DF11964#570000C7FF7E01FF
(1693519324.772288) can0 11F80E2B#C01B016C170E0D98
(1693519324.773037) can0 11F80E2B#C11D640780E60C21
(1693519324.773789) can0 11F80E2B#C27C77792400A208
(1693519324.774539) can0 11F80E2B#C3089B76000000FE
(1693519324.776711) can0 09F10502#E015300C3FA3FEDA
(1693519324.777483) can0 09F10502#E18FFFFF1713A30D
(1693519324.778260) can0 09F10502#E2FF7F4607FF7FFF
(1693519324.779032) can0 09F10502#E3FFFFFFFFFFFFFF
(1693519324.779811) can0 09F10D03#FF07FF7F6DFEFFFF
(1693519324.780638) can0 09F10D00#FF07FF7FFDFFFFFF
(1693519324.781457) can0 09F10D02#FF01A3FEFF7FFFFF
(1693519324.795042) can0 0DF11305#00B0E1FEFF2602FF
(1693519324.796154) can0 09F11205#00E88CFF7FFF7FFD
(1693519324.801585) can0 0DF20D02#0001000000000000
(1693519324.820850) can0 09FD0206#00AE0020B2FAFFFF
(1693519324.827327) can0 1DFF0502#40A01399000D0A33
(1693519324.828179) can0 1DFF0502#413039382E302C35
(1693519324.828930) can0 1DFF0502#422C312E352C2D30
(1693519324.829676) can0 1DFF0502#432E322C302E302C
(1693519324.830419) can0 1DFF0502#442D312E382C302E
(1693519324.831188) can0 1DFF0502#4530302C3231312E
(1693519324.831947) can0 1DFF0502#46302C302E30302C
(1693519324.832692) can0 1DFF0502#473231312E332C2D
(1693519324.833437) can0 0DF11264#57E88CFF7F4603FD
(1693519324.834171) can0 1DFF0502#48302E31332C2D30
(1693519324.834906) can0 1DFF0502#492E30342C2D322E
(1693519324.835646) can0 1DFF0502#4A332C2D322E302C
(1693519324.836384) can0 1DFF0502#4B302C332E39392C
(1693519324.837127) can0 1DFF0502#4C312E352C302E36
(1693519324.837871) can0 1DFF0502#4D382C312E35302C
(1693519324.838611) can0 1DFF0502#4E33322E38302C31
(1693519324.839371) can0 1DFF0502#4F302E30302C332E
(1693519324.840110) can0 1DFF0502#5033332C342E3632
(1693519324.840841) can0 1DFF0502#512C3232342E3931
(1693519324.841580) can0 1DFF0502#522C322E33322C2D
(1693519324.842327) can0 1DFF0502#53312E382C323034
(1693519324.843095) can0 1DFF0502#542E31302C302E30
(1693519324.843841) can0 1DFF0502#552C322E382C3230
(1693519324.844593) can0 1DFF0502#562E302C302E302C
(1693519324.845354) can0 0DF11305#0027ABFEFFFF7FFD
(1693519324.846151) can0 09F11205#00E78CFF7FFF7FFD
(1693519324.846987) can0 0DF11905#00FF7FE3FF7D01FF
(1693519324.847841) can0 0DF11405#004582FFFFFF7FFD
(1693519324.848674) can0 08FF4605#65003C01F82702FF
(1693519324.849509) can0 15FD0723#FFC01472FF7FFFFF
(1693519324.862270) can0 0DF50B23#FFDC0800007DFCFF
(1693519324.869859) can0 09F50323#FF3200FFFF00FFFF
(1693519324.873133) can0 0DFD0264#FFAE0020B2FAFFFF
(1693519324.873939) can0 18FF3D02#419FFFFF02FFFFFF
(1693519324.874737) can0 0DF01064#FFFF904CC0E1472F
(1693519324.879608) can0 09F8012B#C0ACFF20D8897707
(1693519324.886506) can0 0DF11264#57E78CFF7F4603FD
(1693519324.887870) can0 0DF11964#570000E3FF7D01FF
(1693519324.895755) can0 0DF11305#009F8EFFFF2702FF
(1693519324.896525) can0 09F11205#00E58CFF7FFF7FFD
(1693519324.897424) can0 0DFD0664#FF147200000000FF
(1693519324.898323) can0 0DF50B64#FFDC0800007DFCFF
(1693519324.899171) can0 0DF50364#FF3200FFFFFFFFFF
(1693519324.899983) can0 0DF80164#C0ACFF20D8897707
(1693519324.925783) can0 09F10D03#FF07FF7F6DFEFFFF
(1693519324.926897) can0 09F10D00#FF07FF7FFDFFFFFF
(1693519324.927759) can0 0DF11264#57E58CFF7F4603FD
(1693519324.945092) can0 0DF11305#00A2D1FFFFFF7FFD
(1693519324.946221) can0 09F11205#00E48CFF7FFF7FFD
(1693519324.947123) can0 0DF11905#00FF7FF5FF7401FF
(1693519324.948023) can0 09FD0206#00AE0072ACFAFFFF
(1693519324.948868) can0 0DF11405#00B981FFFFFF7FFD
(1693519324.949752) can0 08FF4605#86001300A52902FF
(1693519324.969992) can0 19F51323#C00EFFFFFFFFFFFF
(1693519324.972108) can0 19F51323#C1FA8D3600FA8D36
(1693519324.975361) can0 19F51323#C200FFFFFFFFFFFF
(1693519324.983393) can0 0DF11264#57E48CFF7F4603FD
(1693519324.995683) can0 0DF11305#0000B5FFFF2902FF
(1693519324.996458) can0 09F11205#00E38CFF7FFF7FFD
(1693519324.997251) can0 0DF11964#570000F5FF7401FF
(1693519324.998076) can0 0DFD0264#FFAE0072ACFAFFFF
(1693519325.000166) can0 0DF20D02#0001000000000000
(1693519325.001269) can0 04FF1902#419F640A10000000
(1693519325.008969) can0 0DF11264#57E38CFF7F4603FD
(1693519325.025877) can0 09F10502#0015300C1FA3FEDA
(1693519325.026988) can0 09F10502#018FFFFF1713A30D
(1693519325.027766) can0 09F10502#02FF7F4607FF7FFF
(1693519325.028544) can0 09F10502#03FFFFFFFFFFFFFF
(1693519325.029312) can0 09F10D03#FF07FF7F9CFEFFFF
(1693519325.030147) can0 09F10D00#FF07FF7FFDFFFFFF
(1693519325.031001) can0 09F10D02#FF00A3FEFF7FFFFF
(1693519325.037901) can0 0DF21464#015805FF7FFFFFFF
(1693519325.038976) can0 0DF21464#004B056001FFFFFF
(1693519325.040071) can0 0DF21264#400BFF000046FFC4
(1693519325.040846) can0 0DF21264#41FFFFFFFFFFFFFF
(1693519325.045507) can0 0DF11305#00AAC1FFFFFF7FFD
(1693519325.046311) can0 09F11205#00E38CFF7FFF7FFD
(1693519325.047337) can0 0DF11905#00FF7FF5FF4401FF
(1693519325.048189) can0 0DF11405#002C81FFFFFF7FFD
(1693519325.048995) can0 08FF4605#DCFE79018F2702FF
(1693519325.066030) can0 0DF11264#57E38CFF7F4603FD
(1693519325.071041) can0 09FD0206#00AE000DACFAFFFF
(1693519325.072564) can0 0DF11964#570000F5FF4401FF
(1693519325.075452) can0 18FF3D02#419FFFFF02FFFFFF
(1693519325.079752) can0 09F8012B#C0ACFF20D8897707
(1693519325.084003) can0 0DFD0264#FFAE000DACFAFFFF
(1693519325.094831) can0 0DF11305#00256FFFFF2702FF
(1693519325.095962) can0 09F11205#00E38CFF7FFF7FFD
(1693519325.096780) can0 0DF80164#C0ACFF20D8897707
(1693519325.114241) can0 09F8012B#00ACFF2050897707
(1693519325.115361) can0 09F8022B#FFFC2987F900FFFF
(1693519325.116186) can0 0DF8052B#602FFF594C002B9F
(1693519325.117011) can0 0DF8052B#61160000000078E0
(1693519325.117830) can0 0DF8052B#62AE070000000072
(1693519325.118625) can0 0DF8052B#6310BD01FFFFFFFF
(1693519325.119405) can0 0DF8052B#64FFFFFF7F10FCFF
(1693519325.120199) can0 0DF8052B#65FF7FFF7F000000
(1693519325.121036) can0 0DF8052B#660000FFFF0100FF
(1693519325.121897) can0 0DF0102B#FFF1594C002B9F16
(1693519325.122734) can0 0CFF1901#419F640B00000000
(1693519325.123566) can0 0CFF1901#419F640300000000
(1693519325.124427) can0 09F10D03#FF07FF7FAAFEFFFF
(1693519325.125260) can0 09F10D00#FF07FF7FFDFFFFFF
(1693519325.144861) can0 0DF11905#00FF7FE8FF2401FF
(1693519325.145995) can0 0DF11405#00A780FFFFFF02FF
(1693519325.146854) can0 08FF4605#FC00DB00952802FF
(1693519325.147696) can0 0DF11305#0091F2FEFFFF7FFD
(1693519325.148544) can0 09F11205#00E38CFF7FFF7FFD
(1693519325.155188) can0 0DF80264#FFFC2987F900FFFF
(1693519325.195265) can0 0DF11305#007864FEFFFF7FFD
(1693519325.196193) can0 0DF80164#F2ABFF204E897707
(1693519325.197597) can0 0DF11964#570000E8FF2401FF
(1693519325.198542) can0 0DF11264#57E38CFF7F4603FD
(1693519325.199477) can0 09F11205#00E28CFF7FFF7FFD
(1693519325.202296) can0 18EAFE02#00EE00
(1693519325.221011) can0 09FD0206#00AE009DAFFAFFFF
(1693519325.225167) can0 18EAFE02#00EE00
(1693519325.226012) can0 0DF20D02#0001000000000000
(1693519325.244826) can0 0DF11305#00245FFDFFFF7FFD
(1693519325.245957) can0 09F11205#00E18CFF7FFF7FFD
(1693519325.246789) can0 0DF11905#00FF7FF7FFFF00FF
(1693519325.247645) can0 0DF11405#001380FFFFFF02FF
(1693519325.248479) can0 08FF4605#8EFE0B01762802FF
(1693519325.263764) can0 0DFD0264#FFAE009DAFFAFFFF
(1693519325.276511) can0 09F10502#2015300C1FA3FEDA
(1693519325.277629) can0 09F10502#218FFFFF1713A30D
(1693519325.278417) can0 09F10502#22FF7F4607FF7FFF
(1693519325.279201) can0 0DF11264#57E18CFF7F4603FD
(1693519325.279958) can0 0DF11964#570000F7FFFF00FF
(1693519325.280729) can0 09F10502#23FFFFFFFFFFFFFF
(1693519325.281501) can0 09F10D03#FF07FF7F94FEFFFF
(1693519325.282343) can0 09F10D00#FF07FF7FFDFFFFFF
